(1740508731.583815) can0 164#00000017AB00002E
(1740508731.585997) can0 039#0039
(1740508731.588177) can0 18E#00002F
(1740508731.590648) can0 158#000002AC00000002
(1740508731.590851) can0 188#000000010033
(1740508731.591998) can0 305#8017
(1740508731.592370) can0 136#000200000000002A
(1740508731.592583) can0 13A#2E003100000000AC
(1740508731.592850) can0 13F#0000000000000023
(1740508731.593124) can0 17C#000002E530002064
(1740508731.593269) can0 1DC#0202E534
(1740508731.593709) can0 164#00000017AB00003D
(1740508731.595461) can0 1A4#0000000000000027
(1740508731.595661) can0 1B0#00000000000066
(1740508731.595954) can0 1D0#000000000000000A
(1740508731.598194) can0 18E#00003E
(1740508731.600647) can0 158#000002AC00000011
(1740508731.600835) can0 188#000000010006
(1740508731.602369) can0 136#0002000000000039
(1740508731.602585) can0 13A#2E003100000000BB
(1740508731.602843) can0 13F#0000000000000032
(1740508731.603126) can0 17C#000002E530002073
(1740508731.603792) can0 164#00000017AA000001
(1740508731.604016) can0 039#000C
(1740508731.608169) can0 18E#000100
(1740508731.610643) can0 158#000002AD0000002F
(1740508731.610817) can0 188#000000010015
(1740508731.612344) can0 136#000200000000000C
(1740508731.612595) can0 13A#2E0031000000008E
(1740508731.612852) can0 13F#0000000000000005
(1740508731.613120) can0 17C#000002E530002046
(1740508731.613240) can0 1DC#0202E507
(1740508731.613721) can0 164#00000017AA000010
(1740508731.613996) can0 294#000C40043ECA002C
(1740508731.614265) can0 309#0000000000000039
(1740508731.615445) can0 1A4#0000000000000036
(1740508731.615671) can0 1B0#00000000000075
(1740508731.615910) can0 1D0#000000000000000A
(1740508731.618169) can0 18E#000010
(1740508731.620644) can0 158#000002AD0000003E
(1740508731.620845) can0 188#000000010024
(1740508731.621994) can0 039#001B
(1740508731.622343) can0 136#000200000000001B
(1740508731.622571) can0 13A#2E0031000000009D
(1740508731.622846) can0 13F#00000000FFBA0011
(1740508731.623101) can0 17C#000002EC3000205E
(1740508731.623635) can0 164#00000017AA00002F
(1740508731.628198) can0 18E#00002F
(1740508731.630650) can0 158#000002AE00000000
(1740508731.630853) can0 188#000000010033
(1740508731.632373) can0 136#000200000000002A
(1740508731.632619) can0 13A#2E003100000000AC
(1740508731.632846) can0 13F#0000000000000023
(1740508731.633085) can0 17C#000002EC3000206D
(1740508731.633234) can0 1DC#0202EC1F
(1740508731.633689) can0 164#00000017AA00003E
(1740508731.635444) can0 1A4#0000000000000009
(1740508731.635711) can0 1B0#00000000000048
(1740508731.635958) can0 1D0#000000000000000A
(1740508731.638223) can0 18E#00013D
(1740508731.640048) can0 039#002A
(1740508731.640661) can0 158#000002AE0000001F
(1740508731.640863) can0 188#000000010006
(1740508731.642347) can0 136#0002000000000039
(1740508731.642594) can0 13A#2E003100000000BB
(1740508731.642850) can0 13F#0000000000000032
(1740508731.643108) can0 17C#000002EC3000207C
(1740508731.643674) can0 164#00000017AB000000
(1740508731.648182) can0 18E#000001
(1740508731.650650) can0 158#000002AE0000002E
(1740508731.650843) can0 188#000000010015
(1740508731.652373) can0 136#000200000000000C
(1740508731.652594) can0 13A#2E0031000000008E
(1740508731.652844) can0 13F#0000000000000005
(1740508731.653121) can0 17C#000002EC3000204F
(1740508731.653238) can0 1DC#0202EC2E
(1740508731.653695) can0 164#00000017AA000010
(1740508731.653995) can0 294#000C40043ECA003B
(1740508731.655448) can0 1A4#0000000000000018
(1740508731.655638) can0 1B0#00000000000057
(1740508731.655950) can0 1D0#000000000000000A
(1740508731.657993) can0 039#0039
(1740508731.658148) can0 18E#000010
(1740508731.660649) can0 158#000002AF0000003C
(1740508731.660813) can0 188#000000010024
(1740508731.662369) can0 136#000200000000001B
(1740508731.662598) can0 13A#2E0031000000009D
(1740508731.662852) can0 13F#0000000000000014
(1740508731.663117) can0 17C#000002EC3000205E
(1740508731.663719) can0 164#00000017AB00002E
(1740508731.668183) can0 18E#00012E
(1740508731.670628) can0 158#000002B00000000D
(1740508731.670817) can0 188#000000010033
(1740508731.672372) can0 136#000200000000002A
(1740508731.672592) can0 13A#2E003100000000AC
(1740508731.672841) can0 13F#0000000000000023
(1740508731.673140) can0 17C#000002EC3000206D
(1740508731.673234) can0 1DC#0202EC3D
(1740508731.673383) can0 320#000030
(1740508731.673608) can0 324#69330D3200000035
(1740508731.673848) can0 37C#000000003F
(1740508731.674140) can0 164#00000017AA00003E
(1740508731.675468) can0 1A4#0000000000000027
(1740508731.675695) can0 1B0#00000000000066
(1740508731.675969) can0 1D0#000000000000000A
(1740508731.676121) can0 039#000C
(1740508731.678218) can0 18E#00003E
(1740508731.680645) can0 158#000002B00000001C
(1740508731.680842) can0 188#000000010006
(1740508731.682314) can0 136#0002000000000039
(1740508731.682562) can0 13A#2E003100000000BB
(1740508731.682788) can0 13F#0000000000000032
(1740508731.683085) can0 17C#000002EC3000207C
(1740508731.683850) can0 164#00000017AB000000
(1740508731.688172) can0 18E#000001
(1740508731.690653) can0 158#000002B10000002A
(1740508731.690845) can0 188#000000010015
(1740508731.692371) can0 136#000200000000000C
(1740508731.692586) can0 13A#2E0031000000008E
(1740508731.692848) can0 13F#0000000000000005
(1740508731.693122) can0 17C#000002EC3000204F
(1740508731.693273) can0 1DC#0202EC00
(1740508731.693646) can0 164#00000017AB00001F
(1740508731.693930) can0 294#000C40043ECA000E
(1740508731.694120) can0 039#001B
(1740508731.694606) can0 305#8026
(1740508731.695476) can0 1A4#0000000000000036
(1740508731.695721) can0 1B0#00000000000075
(1740508731.695972) can0 1D0#000000000000000A
(1740508731.698151) can0 18E#00011F
(1740508731.699027) can0 18DA11F1#0322261100000000
(1740508731.699358) can0 18DAF111#1039622611FFF000
(1740508731.700660) can0 158#000002B200000038
(1740508731.700846) can0 188#000000010024
(1740508731.702351) can0 136#000200000000001B
(1740508731.702602) can0 13A#2E0031000000009D
(1740508731.702842) can0 13F#00000000001E0015
(1740508731.703099) can0 17C#000002E930002051
(1740508731.703688) can0 164#00000017AA00002F
(1740508731.704288) can0 18DA11F1#3000000000000000
(1740508731.704588) can0 18DAF111#21000C007FF6848F
(1740508731.704888) can0 18DAF111#226A6A80CE022500
(1740508731.705186) can0 18DAF111#235A000000000000
(1740508731.705487) can0 18DAF111#2400000000000000
(1740508731.705863) can0 18DAF111#2500000000000000
(1740508731.706162) can0 18DAF111#26000000000303FF
(1740508731.706463) can0 18DAF111#2700000000000000
(1740508731.706765) can0 18DAF111#2800005555555555
(1740508731.708173) can0 18E#00002F
(1740508731.710647) can0 158#000002B20000000B
(1740508731.710812) can0 188#000000010033
(1740508731.712026) can0 039#002A
(1740508731.712357) can0 136#000200000000002A
(1740508731.712608) can0 13A#2E003100000000AC
(1740508731.712851) can0 13F#0000000000000023
(1740508731.713124) can0 17C#000002E930002060
(1740508731.713243) can0 1DC#0202E912
(1740508731.713685) can0 164#00000017AB00003D
(1740508731.713997) can0 309#000000000000000C
(1740508731.715476) can0 1A4#0000000000000009
(1740508731.715686) can0 1B0#00000000000048
(1740508731.715972) can0 1D0#000000000000000A
(1740508731.718202) can0 18E#00003E
(1740508731.720651) can0 158#000002B20000001A
(1740508731.720817) can0 188#000000010006
(1740508731.722351) can0 136#0002000000000039
(1740508731.722569) can0 13A#2E003100000000BB
(1740508731.722850) can0 13F#0000000000000032
(1740508731.723124) can0 17C#000002E93000207F
(1740508731.723705) can0 164#00000017AB000000
(1740508731.728180) can0 18E#000100
(1740508731.730057) can0 039#0039
(1740508731.730653) can0 158#000002B200000029
(1740508731.730817) can0 188#000000010015
(1740508731.732361) can0 136#000200000000000C
(1740508731.732567) can0 13A#2E0031000000008E
(1740508731.732853) can0 13F#0000000000000005
(1740508731.733126) can0 17C#000002E930002042
(1740508731.733245) can0 1DC#0202E921
(1740508731.733732) can0 164#00000017AB00001F
(1740508731.734006) can0 294#000C40043ECA001D
(1740508731.735477) can0 1A4#0000000000000018
(1740508731.735691) can0 1B0#00000000000057
(1740508731.735973) can0 1D0#000000000000000A
(1740508731.738177) can0 18E#000010
(1740508731.740652) can0 158#000002B200000038
(1740508731.740818) can0 188#000000010024
(1740508731.742352) can0 136#000200000000001B
(1740508731.742543) can0 13A#2E0031000000009D
(1740508731.742824) can0 13F#0000000000000014
(1740508731.743126) can0 17C#000002E930002051
(1740508731.743706) can0 164#00000017AB00002E
(1740508731.747027) can0 039#000C
(1740508731.748192) can0 18E#00002F
(1740508731.750652) can0 158#000002B20000000B
(1740508731.750815) can0 188#000000010033
(1740508731.752351) can0 136#000200000000002A
(1740508731.752616) can0 13A#2E003100000000AC
(1740508731.752819) can0 13F#0000000000000023
(1740508731.753123) can0 17C#000002E930002060
(1740508731.753241) can0 1DC#0202E930
(1740508731.753731) can0 164#00000017AB00003D
(1740508731.755470) can0 1A4#0000000000000027
(1740508731.755730) can0 1B0#00000000000066
(1740508731.755943) can0 1D0#000000000000000A
(1740508731.758202) can0 18E#00013D
(1740508731.760654) can0 158#000002B300000019
(1740508731.760817) can0 188#000000010006
(1740508731.762356) can0 136#0002000000000039
(1740508731.762543) can0 13A#2E003100000000BB
(1740508731.762828) can0 13F#0000000000000032
(1740508731.763131) can0 17C#000002E93000207F
(1740508731.763672) can0 164#00000017AB000000
(1740508731.764022) can0 039#001B
(1740508731.768171) can0 18E#000001
(1740508731.770646) can0 158#000002B300000028
(1740508731.770817) can0 188#000000010015
(1740508731.772370) can0 136#000200000000000C
(1740508731.772567) can0 13A#2E0031000000008E
(1740508731.772846) can0 13F#0000000000000005
(1740508731.773122) can0 17C#000002E930002042
(1740508731.773237) can0 1DC#0202E903
(1740508731.773445) can0 320#000003
(1740508731.773619) can0 324#69330D3200000008
(1740508731.773849) can0 37C#0000000002
(1740508731.774127) can0 40C#0330373433330005
(1740508731.774292) can0 164#00000017AB00001F
(1740508731.774443) can0 454#00F606
(1740508731.774691) can0 294#000C40043ECA002C
(1740508731.774922) can0 465#64644242282805
(1740508731.775520) can0 1A4#0000000000000036
(1740508731.775716) can0 1B0#00000000000075
(1740508731.776023) can0 1D0#000000000000000A
(1740508731.778172) can0 18E#000010
(1740508731.780646) can0 158#000002B400000036
(1740508731.780817) can0 188#000000010024
(1740508731.782025) can0 039#002A
(1740508731.782345) can0 136#000200000000001B
(1740508731.782598) can0 13A#2E0031000000009D
(1740508731.782792) can0 13F#00000000FFF60011
(1740508731.783121) can0 17C#000002EA30002050
(1740508731.783959) can0 164#00000017AB00002E
(1740508731.788196) can0 18E#00012E
(1740508731.790645) can0 158#000002B400000009
(1740508731.790817) can0 188#000000010033
(1740508731.792345) can0 136#000200000000002A
(1740508731.792542) can0 13A#2E003100000000AC
(1740508731.792826) can0 13F#0000000000000023
(1740508731.793125) can0 17C#000002EA3000206F
(1740508731.793243) can0 1DC#0202EA11
(1740508731.793800) can0 164#00000017AB00003D
(1740508731.795497) can0 1A4#0000000000000009
(1740508731.795693) can0 1B0#00000000000048
(1740508731.796003) can0 1D0#000000000000000A
(1740508731.798197) can0 18E#00003E
(1740508731.800073) can0 039#0039
(1740508731.800645) can0 158#000002B400000018
(1740508731.800818) can0 188#000000010006
(1740508731.800942) can0 305#8035
(1740508731.802348) can0 136#0002000000000039
(1740508731.802542) can0 13A#2E003100000000BB
(1740508731.802827) can0 13F#0000000000000032
(1740508731.803133) can0 17C#000002EA3000207E
(1740508731.803847) can0 164#00000017AA000001
(1740508731.808174) can0 18E#000001
(1740508731.810648) can0 158#000002B400000027
(1740508731.810816) can0 188#000000010015
(1740508731.812346) can0 136#000200000000000C
(1740508731.812599) can0 13A#2E0031000000008E
(1740508731.812848) can0 13F#0000000000000005
(1740508731.813123) can0 17C#000002EA30002041
(1740508731.813214) can0 1DC#0202EA20
(1740508731.813800) can0 164#00000017AB00001F
(1740508731.814121) can0 294#000C40043ECA003B
(1740508731.814396) can0 309#000000000000001B
(1740508731.814673) can0 428#000000043ECA1E
(1740508731.814865) can0 42A#0017
(1740508731.815121) can0 405#000004000000001A
(1740508731.815496) can0 1A4#0000000000000018
(1740508731.815712) can0 1B0#00000000000057
(1740508731.815997) can0 1D0#000000000000000A
(1740508731.817995) can0 039#000C
(1740508731.818182) can0 18E#00011F
(1740508731.820646) can0 158#000002B400000036
(1740508731.820852) can0 188#000000010024
(1740508731.822320) can0 136#000200000000001B
(1740508731.822573) can0 13A#2E0031000000009D
(1740508731.822823) can0 13F#00000000FFF60011
(1740508731.823122) can0 17C#000002EB3000205F
(1740508731.823777) can0 164#00000017AB00002E
(1740508731.827696) can0 18E#00002F
(1740508731.830649) can0 158#000002B30000000A
(1740508731.830852) can0 188#000000010033
(1740508731.832345) can0 136#000200000000002A
(1740508731.832570) can0 13A#2E003100000000AC
(1740508731.832821) can0 13F#0000000000000023
(1740508731.833122) can0 17C#000002EB3000206E
(1740508731.833189) can0 1DC#0202EB3E
(1740508731.833709) can0 164#00000017AB00003D
(1740508731.835496) can0 1A4#0000000000000027
(1740508731.835711) can0 1B0#00000000000066
(1740508731.835998) can0 1D0#000000000000000A
(1740508731.836088) can0 039#001B
(1740508731.838196) can0 18E#00003E
(1740508731.840649) can0 158#000002B300000019
(1740508731.840851) can0 188#000000010006
(1740508731.842349) can0 136#0002000000000039
(1740508731.842572) can0 13A#2E003100000000BB
(1740508731.842828) can0 13F#0000000000000032
(1740508731.843123) can0 17C#000002EB3000207D
(1740508731.843697) can0 164#00000017AB000000
(1740508731.848171) can0 18E#000100
(1740508731.850645) can0 158#000002B300000028
(1740508731.850849) can0 188#000000010015
(1740508731.852320) can0 136#000200000000000C
(1740508731.852570) can0 13A#2E0031000000008E
(1740508731.852823) can0 13F#0000000000000005
(1740508731.853050) can0 17C#000002EB30002040
(1740508731.853163) can0 039#002A
(1740508731.853372) can0 1DC#0202EB01
(1740508731.853700) can0 164#00000017AB00001F
(1740508731.853974) can0 294#000C40043ECA000E
(1740508731.855497) can0 1A4#0000000000000036
(1740508731.855686) can0 1B0#00000000000075
(1740508731.855997) can0 1D0#000000000000000A
(1740508731.858170) can0 18E#000010
(1740508731.860645) can0 158#000002B400000036
(1740508731.860847) can0 188#000000010024
(1740508731.862323) can0 136#000200000000001B
(1740508731.862574) can0 13A#2E0031000000009D
(1740508731.862824) can0 13F#00000000FFEC001C
(1740508731.863049) can0 17C#000002ED3000205D
(1740508731.863695) can0 164#00000017AB00002E
(1740508731.868171) can0 18E#00002F
(1740508731.870647) can0 158#000002B400000009
(1740508731.870851) can0 188#000000010033
(1740508731.870967) can0 039#0039
(1740508731.872350) can0 136#000200000000002A
(1740508731.872599) can0 13A#2E003100000000AC
(1740508731.872847) can0 13F#0000000000000023
(1740508731.873122) can0 17C#000002ED3000206C
(1740508731.873215) can0 1DC#0202ED1E
(1740508731.873398) can0 320#000012
(1740508731.873624) can0 324#69330D3200000017
(1740508731.873791) can0 37C#0000000011
(1740508731.874117) can0 164#00000017AB00003D
(1740508731.875489) can0 1A4#0000000000000009
(1740508731.875712) can0 1B0#00000000000048
(1740508731.876023) can0 1D0#000000000000000A
(1740508731.878172) can0 18E#00013D
(1740508731.880646) can0 158#000002B500000017
(1740508731.880859) can0 188#000000010006
(1740508731.882321) can0 136#0002000000000039
(1740508731.882586) can0 13A#2E003100000000BB
(1740508731.882822) can0 13F#0000000000000032
(1740508731.883053) can0 17C#000002ED3000207B
(1740508731.883877) can0 164#00000017AB000000
(1740508731.888173) can0 18E#000001
(1740508731.889026) can0 039#000C
(1740508731.890648) can0 158#000002B500000026
(1740508731.890861) can0 188#000000010015
(1740508731.892321) can0 136#000200000000000C
(1740508731.892574) can0 13A#2E0031000000008E
(1740508731.892827) can0 13F#0000000000000005
(1740508731.893124) can0 17C#000002ED3000204E
(1740508731.893245) can0 1DC#0202ED2D
(1740508731.893726) can0 164#00000017AB00001F
(1740508731.893998) can0 294#000C40043ECA001D
(1740508731.895495) can0 1A4#0000000000000018
(1740508731.895746) can0 1B0#00000000000057
(1740508731.896026) can0 1D0#000000000000000A
(1740508731.898172) can0 18E#000010
(1740508731.900646) can0 158#000002B600000034
(1740508731.900851) can0 188#000000010024
(1740508731.902322) can0 136#000200000000001B
(1740508731.902574) can0 13A#2E0031000000009D
(1740508731.902832) can0 13F#00000000FFEC001C
(1740508731.903121) can0 17C#000002EF3000205B
(1740508731.903772) can0 164#00000017AA00002F
(1740508731.906046) can0 039#001B
(1740508731.906180) can0 305#8008
(1740508731.908196) can0 18E#00012E
(1740508731.910623) can0 158#000002B600000007
(1740508731.910851) can0 188#000000010033
(1740508731.912323) can0 136#000200000000002A
(1740508731.912572) can0 13A#2E003100000000AC
(1740508731.912822) can0 13F#0000000000000023
(1740508731.913050) can0 17C#000002EF3000206A
(1740508731.913225) can0 1DC#0202EF3A
(1740508731.913800) can0 164#00000017AB00003D
(1740508731.914122) can0 309#000000000000002A
(1740508731.915524) can0 1A4#0000000000000027
(1740508731.915772) can0 1B0#00000000000066
(1740508731.916023) can0 1D0#000000000000000A
(1740508731.918193) can0 18E#00003E
(1740508731.920626) can0 158#000002B600000016
(1740508731.920814) can0 188#000000010006
(1740508731.922322) can0 136#0002000000000039
(1740508731.922552) can0 13A#2E003100000000BB
(1740508731.922766) can0 13F#0000000000000032
(1740508731.923036) can0 17C#000002EF30002079
(1740508731.923615) can0 164#00000017AB000000
(1740508731.924035) can0 039#002A
(1740508731.928172) can0 18E#000001
(1740508731.930649) can0 158#000002B700000024
(1740508731.930862) can0 188#000000010015
(1740508731.932314) can0 136#000200000000000C
(1740508731.932581) can0 13A#2E0031000000008E
(1740508731.932822) can0 13F#0000000000000005
(1740508731.933090) can0 17C#000002EF3000204C
(1740508731.933183) can0 1DC#0202EF0D
(1740508731.933709) can0 164#00000017AB00001F
(1740508731.933987) can0 294#000C40043ECA002C
(1740508731.935527) can0 1A4#0000000000000036
(1740508731.935771) can0 1B0#00000000000075
(1740508731.936031) can0 1D0#000000000000000A
(1740508731.938139) can0 18E#00011F
(1740508731.940622) can0 158#000002B800000032
(1740508731.940860) can0 188#000000010024
(1740508731.941144) can0 039#0039
(1740508731.942284) can0 136#000200000000001B
(1740508731.942508) can0 13A#2E0031000000009D
(1740508731.942829) can0 13F#00000000FFC40016
(1740508731.943016) can0 17C#000002F530002054
(1740508731.943633) can0 164#00000017AB00002E
(1740508731.948196) can0 18E#00002F
(1740508731.950598) can0 158#000002B800000005
(1740508731.950859) can0 188#000000010033
(1740508731.952327) can0 136#000200000000002A
(1740508731.952572) can0 13A#2E003100000000AC
(1740508731.952825) can0 13F#0000000000000023
(1740508731.953049) can0 17C#000002F530002063
(1740508731.953223) can0 1DC#0202F515
(1740508731.953706) can0 164#00000017AB00003D
(1740508731.955527) can0 1A4#0000000000000009
(1740508731.955781) can0 1B0#00000000000048
(1740508731.956032) can0 1D0#000000000000000A
(1740508731.958202) can0 18E#00003E
(1740508731.959130) can0 039#000C
(1740508731.960651) can0 158#000002BA00000012
(1740508731.960848) can0 188#000000010006
(1740508731.962331) can0 136#0002000000000039
(1740508731.962591) can0 13A#2E003100000000BB
(1740508731.962826) can0 13F#0000000000000032
(1740508731.963048) can0 17C#000002F530002072
(1740508731.963706) can0 164#00000017AB000000
(1740508731.968173) can0 18E#000100
(1740508731.970622) can0 158#000002BB00000020
(1740508731.970848) can0 188#000000010015
(1740508731.972321) can0 136#000200000000000C
(1740508731.972575) can0 13A#2E0031000000008E
(1740508731.972791) can0 13F#0000000000000005
(1740508731.973021) can0 17C#000002F530002045
(1740508731.973215) can0 1DC#0202F524
(1740508731.973340) can0 320#000021
(1740508731.973562) can0 324#69330D3200000026
(1740508731.973763) can0 37C#0000000020
(1740508731.974087) can0 164#00000017AA000010
(1740508731.974398) can0 294#000C40043ECA003B
(1740508731.975570) can0 1A4#0000000000000018
(1740508731.975822) can0 1B0#00000000000057
(1740508731.976121) can0 1D0#000000000000000A
(1740508731.976189) can0 039#001B
(1740508731.978171) can0 18E#000010
(1740508731.980647) can0 158#000002BC0000003E
(1740508731.980847) can0 188#000000010024
(1740508731.982330) can0 136#000200000000001B
(1740508731.982553) can0 13A#2E0031000000009D
(1740508731.982817) can0 13F#00000000000A001A
(1740508731.983057) can0 17C#000002F430002055
(1740508731.983859) can0 164#00000017AA00002F
(1740508731.988171) can0 18E#00002F
(1740508731.990647) can0 158#000002BD00000000
(1740508731.990857) can0 188#000000010033
(1740508731.992324) can0 136#000200000000002A
(1740508731.992593) can0 13A#2E003100000000AC
(1740508731.992832) can0 13F#0000000000000023
(1740508731.993036) can0 17C#000002F430002064
(1740508731.993163) can0 039#002A
(1740508731.993315) can0 1DC#0202F434
(1740508731.993635) can0 164#00000017AA00003E
(1740508731.995557) can0 1A4#0000000000000027
(1740508731.995772) can0 1B0#00000000000066
(1740508731.996048) can0 1D0#000000000000000A
(1740508731.998197) can0 18E#00013D
(1740508732.000649) can0 158#000002BD0000001F
(1740508732.000855) can0 188#000000010006
(1740508732.001522) can0 18DA11F1#0322261100000000
(1740508732.001854) can0 18DAF111#1039622611FFF000
(1740508732.002297) can0 136#0002000000000039
(1740508732.002536) can0 13A#2E003100000000BB
(1740508732.002763) can0 13F#0000000000000032
(1740508732.003049) can0 17C#000002F430002073
(1740508732.003696) can0 164#00000017AB000000
(1740508732.006821) can0 18DA11F1#3000000000000000
(1740508732.007123) can0 18DAF111#21000C007FF88372
(1740508732.007422) can0 18DAF111#226A6A7FB2020800
(1740508732.007698) can0 18DAF111#235B000000000000
(1740508732.008039) can0 18DAF111#2400000000000000
(1740508732.008145) can0 18E#000001
(1740508732.008478) can0 18DAF111#2500000000000000
(1740508732.008761) can0 18DAF111#26000000000303FF
(1740508732.009054) can0 18DAF111#2700000000000000
(1740508732.009371) can0 18DAF111#2800005555555555
(1740508732.010646) can0 158#000002BE0000002D
(1740508732.010822) can0 188#000000010015
(1740508732.011053) can0 039#0039
(1740508732.011198) can0 305#8017
(1740508732.012322) can0 136#000200000000000C
(1740508732.012552) can0 13A#2E0031000000008E
(1740508732.012766) can0 13F#0000000000000005
(1740508732.013049) can0 17C#000002F430002046
(1740508732.013224) can0 1DC#0202F407
(1740508732.013689) can0 164#00000017AB00001F
(1740508732.013974) can0 294#000C40043ECA000E
(1740508732.014271) can0 309#0000000000000039
(1740508732.015548) can0 1A4#0000000000000036
(1740508732.015744) can0 1B0#00000000000075
(1740508732.016052) can0 1D0#000000000000000A
(1740508732.018171) can0 18E#000010
(1740508732.020646) can0 158#000002BD0000003D
(1740508732.020813) can0 188#000000010024
(1740508732.022324) can0 136#000200000000001B
(1740508732.022578) can0 13A#2E0031000000009D
(1740508732.022765) can0 13F#00000000003C0015
(1740508732.023012) can0 17C#000002EE3000205C
(1740508732.023690) can0 164#00000017AB00002E
(1740508732.027722) can0 18E#00002F
(1740508732.028050) can0 039#000C
(1740508732.030646) can0 158#000002BC00000001
(1740508732.030814) can0 188#000000010033
(1740508732.032296) can0 136#000200000000002A
(1740508732.032561) can0 13A#2E003100000000AC
(1740508732.032765) can0 13F#0000000000000023
(1740508732.033051) can0 17C#000002EE3000206B
(1740508732.033189) can0 1DC#0202EE1D
(1740508732.033712) can0 164#00000017AB00003D
(1740508732.035551) can0 1A4#0000000000000009
(1740508732.035807) can0 1B0#00000000000048
(1740508732.036062) can0 1D0#000000000000000A
(1740508732.038172) can0 18E#00013D
(1740508732.040645) can0 158#000002BC00000010
(1740508732.040817) can0 188#000000010006
(1740508732.042327) can0 136#0002000000000039
(1740508732.042565) can0 13A#2E003100000000BB
(1740508732.042804) can0 13F#0000000000000032
(1740508732.043051) can0 17C#000002EE3000207A
(1740508732.043635) can0 164#00000017AB000000
(1740508732.046045) can0 039#001B
(1740508732.048285) can0 18E#000100
(1740508732.050883) can0 158#000002BC0000002F
(1740508732.050887) can0 188#000000010015
(1740508732.052649) can0 136#000200000000000C
(1740508732.052653) can0 13A#2E0031000000008E
(1740508732.052778) can0 13F#0000000000000005
(1740508732.053060) can0 17C#000002EE3000204D
(1740508732.053190) can0 1DC#0202EE2C
(1740508732.053873) can0 164#00000017AB00001F
(1740508732.054124) can0 294#000C40043ECA001D
(1740508732.055657) can0 1A4#0000000000000018
(1740508732.055762) can0 1B0#00000000000057
(1740508732.056147) can0 1D0#000000000000000A
(1740508732.058603) can0 18E#00031D
(1740508732.060894) can0 158#000002BC0000003E
(1740508732.060907) can0 188#000000010024
(1740508732.062732) can0 136#000200000000001B
(1740508732.062745) can0 13A#2E0031000000009D
(1740508732.062770) can0 13F#00000000FFF60011
(1740508732.063001) can0 17C#000002EF3000205B
(1740508732.063148) can0 039#002A
(1740508732.063881) can0 164#00000017AB00002E
(1740508732.068264) can0 18E#00012E
(1740508732.070877) can0 158#000002BB00000002
(1740508732.070890) can0 188#000000010033
(1740508732.072636) can0 136#000200000000002A
(1740508732.072644) can0 13A#2E003100000000AC
(1740508732.072782) can0 13F#0000000000000023
(1740508732.073092) can0 17C#000002EF3000206A
(1740508732.073217) can0 1DC#0202EF3A
(1740508732.073342) can0 320#000030
(1740508732.073616) can0 324#69330D3200000035
(1740508732.073774) can0 37C#000000003F
(1740508732.074133) can0 40C#0000000004000013
(1740508732.074270) can0 164#00000017AB00003D
(1740508732.074414) can0 454#00F615
(1740508732.074619) can0 465#64644242282814
(1740508732.075760) can0 1A4#0000000000000027
(1740508732.075786) can0 1B0#00000000000066
(1740508732.076051) can0 1D0#000000000000000A
(1740508732.078297) can0 18E#00013D
(1740508732.080295) can0 039#0039
(1740508732.080622) can0 158#000002BC00000010
(1740508732.080859) can0 188#000000010006
(1740508732.082718) can0 136#0002000000000039
(1740508732.082733) can0 13A#2E003100000000BB
(1740508732.082764) can0 13F#0000000000000032
(1740508732.083031) can0 17C#000002EF30002079
(1740508732.083886) can0 164#00000017AB000000
(1740508732.088264) can0 18E#00030E
(1740508732.090871) can0 158#000002BB00000020
(1740508732.090885) can0 188#000000010015
(1740508732.092710) can0 136#000200000000000C
(1740508732.092726) can0 13A#2E0031000000008E
(1740508732.092824) can0 13F#0000000000000005
(1740508732.093033) can0 17C#000002EF3000204C
(1740508732.093185) can0 1DC#0202EF0D
(1740508732.093838) can0 164#00000017AB00001F
(1740508732.094102) can0 294#000C40043ECA002C
(1740508732.095952) can0 1A4#0000000000000036
(1740508732.095967) can0 1B0#00000000000075
(1740508732.096090) can0 1D0#000000000000000A
(1740508732.097155) can0 039#000C
(1740508732.098281) can0 18E#00011F
(1740508732.100953) can0 158#000002BA00000030
(1740508732.100968) can0 188#000000010024
(1740508732.102711) can0 136#000200000000001B
(1740508732.102734) can0 13A#2E0031000000009D
(1740508732.102741) can0 13F#000000000050001F
(1740508732.103011) can0 17C#000002E730002053
(1740508732.103872) can0 164#00000017AB00002E
(1740508732.108342) can0 18E#00012E
(1740508732.110868) can0 158#000002BA00000003
(1740508732.110885) can0 188#000000010033
(1740508732.112535) can0 136#000200000000002A
(1740508732.112549) can0 13A#2E003100000000AC
(1740508732.112799) can0 13F#0000000000000023
(1740508732.113042) can0 17C#000002E730002062
(1740508732.113260) can0 1DC#0202E714
(1740508732.113755) can0 164#00000017AB00003D
(1740508732.113989) can0 309#000000000000000C
(1740508732.114252) can0 428#000000043ECA2D
(1740508732.114438) can0 42A#0026
(1740508732.114743) can0 405#0000040000000029
(1740508732.115040) can0 039#001B
(1740508732.115222) can0 305#8026
(1740508732.115605) can0 1A4#0000000000000009
(1740508732.115814) can0 1B0#00000000000048
(1740508732.116165) can0 1D0#000000000000000A
(1740508732.118522) can0 18E#00033B
(1740508732.120970) can0 158#000002B900000013
(1740508732.120992) can0 188#000000010006
(1740508732.122746) can0 136#0002000000000039
(1740508732.122769) can0 13A#2E003100000000BB
(1740508732.122771) can0 13F#0000000000000032
(1740508732.123034) can0 17C#000002E730002071
(1740508732.123864) can0 164#00000017AB000000
(1740508732.128232) can0 18E#000100
(1740508732.130659) can0 158#000002B800000023
(1740508732.130835) can0 188#000000010015
(1740508732.132320) can0 136#000200000000000C
(1740508732.132621) can0 13A#2E0031000000008E
(1740508732.132933) can0 13F#0000000000000005
(1740508732.133034) can0 17C#000002E730002044
(1740508732.133170) can0 039#002A
(1740508732.133381) can0 1DC#0202E723
(1740508732.133754) can0 164#00000017AA000010
(1740508732.134000) can0 294#000C40043ECA003B
(1740508732.135611) can0 1A4#0000000000000018
(1740508732.135815) can0 1B0#00000000000057
(1740508732.136147) can0 1D0#000000000000000A
(1740508732.138258) can0 18E#00011F
(1740508732.140684) can0 158#000002B600000034
(1740508732.140826) can0 188#000000010024
(1740508732.142370) can0 136#000200000000001B
(1740508732.142562) can0 13A#2E0031000000009D
(1740508732.142771) can0 13F#00000000FFF60011
(1740508732.143061) can0 17C#000002E830002052
(1740508732.143726) can0 164#00000017AA00002F
(1740508732.148322) can0 18E#00032C
(1740508732.150220) can0 039#0039
(1740508732.150669) can0 158#000002B500000008
(1740508732.150830) can0 188#000000010033
(1740508732.152625) can0 136#000200000000002A
(1740508732.152668) can0 13A#2E003100000000AC
(1740508732.152770) can0 13F#0000000000000023
(1740508732.153074) can0 17C#000002E830002061
(1740508732.153171) can0 1DC#0202E831
(1740508732.153714) can0 164#00000017AB00003D
(1740508732.155980) can0 1A4#0000000000000027
(1740508732.156016) can0 1B0#00000000000066
(1740508732.156093) can0 1D0#000000000000000A
(1740508732.158293) can0 18E#00013D
(1740508732.160627) can0 158#000002B400000018
(1740508732.160825) can0 188#000000010006
(1740508732.162284) can0 136#0002000000000039
(1740508732.162499) can0 13A#2E003100000000BB
(1740508732.162774) can0 13F#0000000000000032
(1740508732.163057) can0 17C#000002E830002070
(1740508732.163806) can0 164#00000017AB000000
(1740508732.168034) can0 039#000C
(1740508732.168148) can0 18E#000100
(1740508732.170602) can0 158#000002B300000028
(1740508732.170815) can0 188#000000010015
(1740508732.172305) can0 136#000200000000000C
(1740508732.172521) can0 13A#2E0031000000008E
(1740508732.172789) can0 13F#0000000000000005
(1740508732.173025) can0 17C#000002E830002043
(1740508732.173198) can0 1DC#0202E804
(1740508732.173352) can0 320#000003
(1740508732.173576) can0 324#69330D3200000008
(1740508732.173776) can0 37C#0000000002
(1740508732.174173) can0 164#00000017AB00001F
(1740508732.174474) can0 294#000C40043ECA000E
(1740508732.175602) can0 1A4#0000000000000036
(1740508732.175817) can0 1B0#00000000000075
(1740508732.176098) can0 1D0#000000000000000A
(1740508732.178126) can0 18E#00031D
(1740508732.180602) can0 158#000002B300000037
(1740508732.180793) can0 188#000000010024
(1740508732.182251) can0 136#000200000000001B
(1740508732.182491) can0 13A#2E0031000000009D
(1740508732.182770) can0 13F#00000000FFEC001C
(1740508732.183006) can0 17C#000002EA30002050
(1740508732.183808) can0 164#00000017AB00002E
(1740508732.185002) can0 039#001B
(1740508732.188184) can0 18E#00012E
(1740508732.190597) can0 158#000002B20000000B
(1740508732.190793) can0 188#000000010033
(1740508732.192268) can0 136#000200000000002A
(1740508732.192491) can0 13A#2E003100000000AC
(1740508732.192758) can0 13F#0000000000000023
(1740508732.192992) can0 17C#000002EA3000206F
(1740508732.193163) can0 1DC#0202EA11
(1740508732.193665) can0 164#00000017AB00003D
(1740508732.195541) can0 1A4#0000000000000009
(1740508732.195791) can0 1B0#00000000000048
(1740508732.196088) can0 1D0#000000000000000A
(1740508732.198140) can0 18E#00023C
(1740508732.199017) can0 18DA11F1#0322261100000000
(1740508732.199338) can0 18DAF111#1039622611FFF000
(1740508732.200590) can0 158#000002B20000001A
(1740508732.200815) can0 188#000000010006
(1740508732.202266) can0 136#0002000000000039
(1740508732.202515) can0 13A#2E013100000000BA
(1740508732.202753) can0 13F#0000000000000032
(1740508732.202890) can0 039#002A
(1740508732.203137) can0 17C#000002EA3000207E
(1740508732.203663) can0 164#00000017AB000000
(1740508732.204314) can0 18DA11F1#3000000000000000
(1740508732.204614) can0 18DAF111#21000C007FFA8266
(1740508732.204919) can0 18DAF111#226A6A7E76020400
(1740508732.205320) can0 18DAF111#235B000000000000
(1740508732.205515) can0 18DAF111#2400000000000000
(1740508732.205816) can0 18DAF111#2500000000000000
(1740508732.206115) can0 18DAF111#26000000000303FF
(1740508732.206466) can0 18DAF111#2700000000000000
(1740508732.206774) can0 18DAF111#2800005555555555
(1740508732.208146) can0 18E#00030E
(1740508732.210596) can0 158#000002B200000029
(1740508732.210796) can0 188#000000010015
(1740508732.212246) can0 136#000200000000000C
(1740508732.212498) can0 13A#2E0131000000008D
(1740508732.212770) can0 13F#0000000000000005
(1740508732.212998) can0 17C#000002EA30002041
(1740508732.213139) can0 1DC#0202EA20
(1740508732.213692) can0 164#00000017AA000010
(1740508732.213966) can0 294#000C40043ECA001D
(1740508732.214265) can0 309#000000000000001B
(1740508732.215567) can0 1A4#0000000000000018
(1740508732.215815) can0 1B0#00000000000057
(1740508732.216091) can0 1D0#000000000000000A
(1740508732.218117) can0 18E#00021E
(1740508732.220093) can0 039#0039
(1740508732.220593) can0 158#000002B200000038
(1740508732.220817) can0 188#000000010024
(1740508732.220940) can0 305#8035
(1740508732.222242) can0 136#000200000000001B
(1740508732.222489) can0 13A#2E0131000000009C
(1740508732.222759) can0 13F#00000000FFE20016
(1740508732.222968) can0 17C#000002ED3000205D
(1740508732.223666) can0 164#00000017AB00002E
(1740508732.228146) can0 18E#00022D
(1740508732.230597) can0 158#000002B20000000B
(1740508732.230789) can0 188#000000010033
(1740508732.232266) can0 136#000200000000002A
(1740508732.232513) can0 13A#2E013100000000AB
(1740508732.232767) can0 13F#0000000000000023
(1740508732.232994) can0 17C#000002ED3000206C
(1740508732.233162) can0 1DC#0202ED3C
(1740508732.233752) can0 164#00000017AB00003D
(1740508732.235567) can0 1A4#0000000000000027
(1740508732.235789) can0 1B0#00000000000066
(1740508732.236091) can0 1D0#000000000000000A
(1740508732.238135) can0 039#000C
(1740508732.238161) can0 18E#00033B
(1740508732.240592) can0 158#000002B20000001A
(1740508732.240789) can0 188#000000010006
(1740508732.242241) can0 136#0002000000000039
(1740508732.242488) can0 13A#2E023100000000B9
(1740508732.242760) can0 13F#0000000000000032
(1740508732.242968) can0 17C#000002ED3000207B
(1740508732.243690) can0 164#00000017AB000000
(1740508732.248142) can0 18E#00020F
(1740508732.250591) can0 158#000002B300000028
(1740508732.250814) can0 188#000000010015
(1740508732.252240) can0 136#000200000000000C
(1740508732.252488) can0 13A#2E0231000000008C
(1740508732.252757) can0 13F#0000000000000005
(1740508732.252991) can0 17C#000002ED3000204E
(1740508732.253137) can0 1DC#0202ED0F
(1740508732.253640) can0 164#00000017AB00001F
(1740508732.253915) can0 294#000C40043ECA002C
(1740508732.255565) can0 1A4#0000000000000036
(1740508732.255788) can0 1B0#00000000000075
(1740508732.256088) can0 1D0#000000000000000A
(1740508732.256187) can0 039#001B
(1740508732.258115) can0 18E#00021E
(1740508732.260597) can0 158#000002B300000037
(1740508732.260812) can0 188#000000010024
(1740508732.262549) can0 136#000200000000001B
(1740508732.262568) can0 13A#2E0231000000009B
(1740508732.262808) can0 13F#00000000FFE20016
(1740508732.263059) can0 17C#000002F030002059
(1740508732.263732) can0 164#00000017AB00002E
(1740508732.268495) can0 18E#00032C
(1740508732.270812) can0 158#000002B30000000A
(1740508732.270840) can0 188#000000010033
(1740508732.272611) can0 136#000200000000002A
(1740508732.272631) can0 13A#2E033100000000A9
(1740508732.272756) can0 13F#0000000000000023
(1740508732.273066) can0 17C#000002F030002068
(1740508732.273228) can0 1DC#0202F01A
(1740508732.273368) can0 320#000012
(1740508732.273605) can0 324#69330D3200000017
(1740508732.273755) can0 37C#0000000011
(1740508732.274047) can0 164#00000017AB00003D
(1740508732.274189) can0 039#002A
(1740508732.275958) can0 1A4#0000000000000009
(1740508732.275976) can0 1B0#00000000000048
(1740508732.276150) can0 1D0#000000000000000A
(1740508732.278249) can0 18E#00023C
(1740508732.280666) can0 158#000002B300000019
(1740508732.280869) can0 188#000000010006
(1740508732.282310) can0 136#0002000000000039
(1740508732.282556) can0 13A#2E033100000000B8
(1740508732.282764) can0 13F#0000000000000032
(1740508732.283035) can0 17C#000002F030002077
(1740508732.283871) can0 164#00000017AB000000
(1740508732.288400) can0 18E#00020F
(1740508732.291027) can0 158#000002B400000027
(1740508732.291046) can0 188#000000010015
(1740508732.291207) can0 039#0039
(1740508732.292470) can0 136#000200000000000C
(1740508732.292502) can0 13A#2E0331000000008B
(1740508732.292791) can0 13F#0000000000000005
(1740508732.293056) can0 17C#000002F03000204A
(1740508732.293226) can0 1DC#0202F029
(1740508732.293657) can0 164#00000017AB00001F
(1740508732.293977) can0 294#000C40043ECA003B
(1740508732.295967) can0 1A4#0000000000000018
(1740508732.296000) can0 1B0#00000000000057
(1740508732.296097) can0 1D0#000000000000000A
(1740508732.298302) can0 18E#00031D
(1740508732.300683) can0 158#000002B400000036
(1740508732.300792) can0 188#000000010024
(1740508732.302698) can0 136#000200000000001B
(1740508732.302747) can0 13A#2E0331000000009A
(1740508732.302911) can0 13F#0000000000000014
(1740508732.302990) can0 17C#000002F030002059
(1740508732.303870) can0 164#00000017AB00002E
(1740508732.308241) can0 18E#00022D
(1740508732.309206) can0 039#000C
(1740508732.310673) can0 158#000002B500000008
(1740508732.310837) can0 188#000000010033
(1740508732.312322) can0 136#000200000000002A
(1740508732.312555) can0 13A#2E033100000000A9
(1740508732.312807) can0 13F#0000000000000023
(1740508732.313054) can0 17C#000002F030002068
(1740508732.313155) can0 1DC#0202F038
(1740508732.313736) can0 164#00000017AB00003D
(1740508732.313998) can0 309#000000000000002A
(1740508732.315991) can0 1A4#0000000000000027
(1740508732.316015) can0 1B0#00000000000066
(1740508732.316159) can0 1D0#000000000000000A
(1740508732.318287) can0 18E#00023C
(1740508732.321045) can0 158#000002B500000017
(1740508732.321070) can0 188#000000010006
(1740508732.322456) can0 136#0002000000000039
(1740508732.322496) can0 13A#2E043100000000B7
(1740508732.322779) can0 13F#0000000000000032
(1740508732.322997) can0 17C#000002F030002077
(1740508732.323761) can0 164#00000017AB000000
(1740508732.326261) can0 039#001B
(1740508732.326637) can0 305#8008
(1740508732.328237) can0 18E#00030E
(1740508732.330675) can0 158#000002B600000025
(1740508732.330841) can0 188#000000010015
(1740508732.332304) can0 136#000200000000000C
(1740508732.332534) can0 13A#2E0431000000008A
(1740508732.332773) can0 13F#0000000000000005
(1740508732.332984) can0 17C#000002F03000204A
(1740508732.333156) can0 1DC#0202F00B
(1740508732.333773) can0 164#00000017AB00001F
(1740508732.334037) can0 294#000C40043ECA000E
(1740508732.335703) can0 1A4#0000000000000036
(1740508732.335827) can0 1B0#00000000000075
(1740508732.336108) can0 1D0#000000000000000A
(1740508732.338202) can0 18E#00021E
(1740508732.340652) can0 158#000002B700000033
(1740508732.340814) can0 188#000000010024
(1740508732.342512) can0 136#000200000000001B
(1740508732.342555) can0 13A#2E05310000000098
(1740508732.342776) can0 13F#00000000FFF60011
(1740508732.343014) can0 17C#000002F130002058
(1740508732.343718) can0 164#00000017AB00002E
(1740508732.344045) can0 039#002A
(1740508732.348221) can0 18E#00022D
(1740508732.350707) can0 158#000002B700000006
(1740508732.350793) can0 188#000000010033
(1740508732.352310) can0 136#000200000000002A
(1740508732.352523) can0 13A#2E053100000000A7
(1740508732.352763) can0 13F#0000000000000023
(1740508732.352986) can0 17C#000002F130002067
(1740508732.353164) can0 1DC#0202F119
(1740508732.353815) can0 164#00000017AA00003E
(1740508732.355879) can0 1A4#0000000000000009
(1740508732.355920) can0 1B0#00000000000048
(1740508732.356107) can0 1D0#000000000000000A
(1740508732.358395) can0 18E#00033B
(1740508732.360679) can0 158#000002B800000014
(1740508732.360830) can0 188#000000010006
(1740508732.361239) can0 039#0039
(1740508732.362328) can0 136#0002000000000039
(1740508732.362482) can0 13A#2E063100000000B5
(1740508732.362735) can0 13F#0000000000000032
(1740508732.362986) can0 17C#000002F130002076
(1740508732.363701) can0 164#00000017AB000000
(1740508732.368268) can0 18E#00020F
(1740508732.370747) can0 158#000002B900000022
(1740508732.370814) can0 188#000000010015
(1740508732.372526) can0 136#000200000000000C
(1740508732.372553) can0 13A#2E07310000000087
(1740508732.372755) can0 13F#0000000000000005
(1740508732.373010) can0 17C#000002F130002049
(1740508732.373186) can0 1DC#0202F128
(1740508732.373335) can0 320#000021
(1740508732.373563) can0 324#69330D3400000024
(1740508732.373771) can0 37C#0000000020
(1740508732.373990) can0 40C#014A484D46443124
(1740508732.374225) can0 164#00000017AB00001F
(1740508732.374378) can0 454#00F624
(1740508732.374601) can0 294#000C40043ECA001D
(1740508732.374837) can0 465#64644242282823
(1740508732.375889) can0 1A4#0000000000000018
(1740508732.375915) can0 1B0#00000000000057
(1740508732.376162) can0 1D0#000000000000000A
(1740508732.378029) can0 039#000C
(1740508732.378189) can0 18E#00021E
(1740508732.380975) can0 158#000002B900000031
(1740508732.381016) can0 188#000000010024
(1740508732.382450) can0 136#000200000000001B
(1740508732.382667) can0 13A#2E08310000000095
(1740508732.382759) can0 13F#00000000000A001A
(1740508732.382985) can0 17C#000002F030002059
(1740508732.384273) can0 164#00000017AA00002F
(1740508732.388432) can0 18E#00032C
(1740508732.390773) can0 158#000002B900000004
(1740508732.390813) can0 188#000000010033
(1740508732.392606) can0 136#000200000000002A
(1740508732.392630) can0 13A#2E093100000000A3
(1740508732.392792) can0 13F#0000000000000023
(1740508732.392991) can0 17C#000002F030002068
(1740508732.393231) can0 1DC#0202F038
(1740508732.393774) can0 164#00000017AA00003E
(1740508732.395141) can0 039#001B
(1740508732.395627) can0 1A4#0000000000000027
(1740508732.395876) can0 1B0#00000000000066
(1740508732.396139) can0 1D0#000000000000000A
(1740508732.398512) can0 18E#00023C
(1740508732.400975) can0 158#000002BA00000012
(1740508732.400999) can0 188#000000010006
(1740508732.402372) can0 136#0002000000000039
(1740508732.402545) can0 13A#2E0A3100000000B1
(1740508732.402732) can0 13F#0000000000000032
(1740508732.402988) can0 17C#000002F030002077
(1740508732.403909) can0 164#00000017AB000000
(1740508732.408275) can0 18E#00020F
(1740508732.410864) can0 158#000002BA00000021
(1740508732.410886) can0 188#000000010015
(1740508732.412157) can0 039#002A
(1740508732.412382) can0 136#000200000000000C
(1740508732.412605) can0 13A#2E0B310000000083
(1740508732.412857) can0 13F#0000000000000005
(1740508732.413105) can0 17C#000002F03000204A
(1740508732.413279) can0 1DC#0202F00B
(1740508732.413704) can0 164#00000017AA000010
(1740508732.413996) can0 294#000C40043ECA002C
(1740508732.414282) can0 309#0000000000000039
(1740508732.414530) can0 428#000000043ECA3C
(1740508732.414697) can0 42A#0035
(1740508732.415068) can0 405#0000040000000038
(1740508732.415676) can0 1A4#0000000000000036
(1740508732.415912) can0 1B0#00000000000075
(1740508732.416129) can0 1D0#000000000000000A
(1740508732.418364) can0 18E#00031D
(1740508732.420972) can0 158#000002BA00000030
(1740508732.420996) can0 188#000000010024
(1740508732.422439) can0 136#000200000000001B
(1740508732.422479) can0 13A#2E0C310000000091
(1740508732.422744) can0 13F#0000000000000014
(1740508732.422987) can0 17C#000002F030002059
(1740508732.423755) can0 164#00000017AA00002F
(1740508732.428440) can0 18E#00022D
(1740508732.429234) can0 039#0039
(1740508732.429652) can0 305#8017
(1740508732.430844) can0 158#000002BB00000002
(1740508732.430858) can0 188#000000010033
(1740508732.432602) can0 136#000200000000002A
(1740508732.432626) can0 13A#2E0D3100000000AF
(1740508732.432814) can0 13F#0000000000000023
(1740508732.433011) can0 17C#000002F0B0002060
(1740508732.433166) can0 1DC#0202F01A
(1740508732.433862) can0 164#00000017AA00003E
(1740508732.435987) can0 1A4#0000000000000009
(1740508732.436011) can0 1B0#00000000000048
(1740508732.436180) can0 1D0#000000000000000A
(1740508732.438254) can0 18E#00023C
(1740508732.440649) can0 158#000002BB00000011
(1740508732.440868) can0 188#000000010006
(1740508732.442517) can0 136#0002000000000039
(1740508732.442541) can0 13A#2E0E3100000000BD
(1740508732.442800) can0 13F#0000000000000032
(1740508732.443008) can0 17C#000002F0B000207F
(1740508732.443831) can0 164#00000017AA000001
(1740508732.447202) can0 039#000C
(1740508732.448486) can0 18E#00030E
(1740508732.450977) can0 158#000002BB00000020
(1740508732.451001) can0 188#000000010015
(1740508732.452497) can0 136#000200000000000C
(1740508732.452521) can0 13A#2E0F31000000008F
(1740508732.452779) can0 13F#0000000000000005
(1740508732.453010) can0 17C#000002F0B0002042
(1740508732.453162) can0 1DC#0202F029
(1740508732.453755) can0 164#00000017AB00001F
(1740508732.454055) can0 294#000C40043ECA003B
(1740508732.455673) can0 1A4#0000000000000018
(1740508732.455932) can0 1B0#00000000000057
(1740508732.456131) can0 1D0#000000000000000A
(1740508732.458197) can0 18E#00021E
(1740508732.460659) can0 158#000002BB0000003F
(1740508732.460835) can0 188#000000010024
(1740508732.462580) can0 136#000200000000001B
(1740508732.462604) can0 13A#2E0F31000000009E
(1740508732.462788) can0 13F#0000000000000014
(1740508732.462963) can0 17C#000002F0B0002051
(1740508732.463750) can0 164#00000017AA00002F
(1740508732.464171) can0 039#001B
(1740508732.468348) can0 18E#00022D
(1740508732.470841) can0 158#000002BB00000002
(1740508732.470864) can0 188#000000010033
(1740508732.472349) can0 136#0002000001000029
(1740508732.472572) can0 13A#2E103100000000AB
(1740508732.472766) can0 13F#0000000000000023
(1740508732.472993) can0 17C#000002F0B0002060
(1740508732.473168) can0 1DC#0202F038
(1740508732.473307) can0 320#000030
(1740508732.473541) can0 324#69330D3400000033
(1740508732.473732) can0 37C#000000003F
(1740508732.474157) can0 164#00000017AB00003D
(1740508732.475706) can0 1A4#0000000000000027
(1740508732.475985) can0 1B0#00000000000066
(1740508732.476158) can0 1D0#000000000000000A
(1740508732.478292) can0 18E#00033B
(1740508732.480646) can0 158#000002BB00000011
(1740508732.480865) can0 188#000000010006
(1740508732.482575) can0 039#002A
(1740508732.482598) can0 136#0002000001000038
(1740508732.482601) can0 13A#2E113100000000B9
(1740508732.482874) can0 13F#0000000000000032
(1740508732.483108) can0 17C#000002F0B000207F
(1740508732.483879) can0 164#00000017AB000000
(1740508732.488488) can0 18E#00020F
(1740508732.490973) can0 158#000002BA00000021
(1740508732.490997) can0 188#000000010015
(1740508732.492438) can0 136#000200000100000B
(1740508732.492479) can0 13A#2E1231000000008B
(1740508732.492963) can0 13F#0000000000000005
(1740508732.492999) can0 17C#000002F0B0002042
(1740508732.493126) can0 1DC#0202F00B
(1740508732.493765) can0 164#00000017AB00001F
(1740508732.493969) can0 294#000C40043ECA000E
(1740508732.495877) can0 1A4#0000000000000036
(1740508732.495891) can0 1B0#00000000000075
(1740508732.496175) can0 1D0#000000000000000A
(1740508732.498500) can0 18E#00021E
(1740508732.500224) can0 039#0039
(1740508732.500756) can0 158#000002BA00000030
(1740508732.500832) can0 188#000000010024
(1740508732.502577) can0 136#000200000100001A
(1740508732.502601) can0 13A#2E13310000000099
(1740508732.502788) can0 13F#00000000000A001A
(1740508732.502960) can0 17C#000002EFB0002053
(1740508732.503749) can0 164#00000017AB00002E
(1740508732.508297) can0 18E#00032C
(1740508732.510974) can0 158#000002BA00000003
(1740508732.510999) can0 188#000000010033
(1740508732.512298) can0 136#0002000001000029
(1740508732.512548) can0 13A#2E133100000000A8
(1740508732.512764) can0 13F#0000000000000023
(1740508732.512963) can0 17C#000002EFB0002062
(1740508732.513130) can0 1DC#0202EF1C
(1740508732.513836) can0 164#00000017AB00003D
(1740508732.514099) can0 309#000000000000000C
(1740508732.515866) can0 1A4#0000000000000009
(1740508732.515890) can0 1B0#00000000000048
(1740508732.516145) can0 1D0#000000000000000A
(1740508732.518118) can0 039#000C
(1740508732.518269) can0 18E#00003E
(1740508732.520991) can0 158#000002BA00000012
(1740508732.521015) can0 188#000000010006
(1740508732.522436) can0 136#0002000001000038
(1740508732.522481) can0 13A#2E133100000000B7
(1740508732.522755) can0 13F#0000000000000032
(1740508732.522961) can0 17C#000002EFB0002071
(1740508732.523801) can0 164#00000017AB000000
(1740508732.528329) can0 18E#000001
(1740508732.530988) can0 158#000002BB00000020
(1740508732.531012) can0 188#000000010015
(1740508732.532730) can0 136#000200000200000A
(1740508732.532756) can0 13A#2E14310000000089
(1740508732.532760) can0 13F#0000000000000005
(1740508732.533024) can0 17C#000002EFB0002044
(1740508732.533161) can0 1DC#0202EF2B
(1740508732.533708) can0 164#00000017AB00001F
(1740508732.533987) can0 294#000C40043ECA001D
(1740508732.535512) can0 039#001B
(1740508732.535539) can0 305#8026
(1740508732.535711) can0 1A4#0000000000000018
(1740508732.535931) can0 1B0#00000000000057
(1740508732.536159) can0 1D0#000000000000000A
(1740508732.538300) can0 18E#00011F
(1740508732.540994) can0 158#000002BB0000003F
(1740508732.541020) can0 188#000000010024
(1740508732.542348) can0 136#0002000002000019
(1740508732.542515) can0 13A#2E15310000000097
(1740508732.542710) can0 13F#00000000FFC40016
(1740508732.542968) can0 17C#000002F5B000205C
(1740508732.543862) can0 164#00000017AB00002E
(1740508732.548522) can0 18E#00002F
(1740508732.550975) can0 158#000002BB00000002
(1740508732.551002) can0 188#000000010033
(1740508732.552440) can0 136#0002000002000028
(1740508732.552468) can0 039#002A
(1740508732.552660) can0 13A#2E153100000000A6
(1740508732.552880) can0 13F#0000000000000023
(1740508732.553108) can0 17C#000002F5B000206B
(1740508732.553258) can0 1DC#0202F533
(1740508732.553661) can0 164#00000017AB00003D
(1740508732.556008) can0 1A4#0000000000000027
(1740508732.556035) can0 1B0#00000000000066
(1740508732.556210) can0 1D0#000000000000000A
(1740508732.558520) can0 18E#00003E
(1740508732.560974) can0 158#000002BC00000010
(1740508732.561001) can0 188#000000010006
(1740508732.562435) can0 136#0002000002000037
(1740508732.562481) can0 13A#2E163100000000B4
(1740508732.562774) can0 13F#0000000000000032
(1740508732.562986) can0 17C#000002F5B000207A
(1740508732.563779) can0 164#00000017AB000000
(1740508732.568436) can0 18E#000100
(1740508732.570279) can0 039#0039
(1740508732.570632) can0 158#000002BD0000002E
(1740508732.570813) can0 188#000000010015
(1740508732.572579) can0 136#0002000003000009
(1740508732.572606) can0 13A#2E17310000000086
(1740508732.572740) can0 13F#0000000000000005
(1740508732.573004) can0 17C#000002F5B000204D
(1740508732.573131) can0 1DC#0202F506
(1740508732.573279) can0 320#000003
(1740508732.573691) can0 324#69330D3400000006
(1740508732.573726) can0 37C#0000000002
(1740508732.573965) can0 164#00000017AB00001F
(1740508732.574259) can0 294#000C40043ECA002C
(1740508732.575679) can0 1A4#0000000000000036
(1740508732.575944) can0 1B0#00000000000075
(1740508732.576179) can0 1D0#000000000000000A
(1740508732.578271) can0 18E#000010
(1740508732.580971) can0 158#000002BE0000003C
(1740508732.580996) can0 188#000000010024
(1740508732.582701) can0 136#0002000003000018
(1740508732.582727) can0 13A#2E18310000000094
(1740508732.582730) can0 13F#00000000000A001A
(1740508732.583016) can0 17C#000002F4B000205D
(1740508732.583851) can0 164#00000017AA00002F
(1740508732.588273) can0 039#000C
(1740508732.588298) can0 18E#00012E
(1740508732.590866) can0 158#000002BD00000000
(1740508732.590893) can0 188#000000010033
(1740508732.592446) can0 136#0002000003000027
(1740508732.592492) can0 13A#2E193100000000A2
(1740508732.592769) can0 13F#0000000000000023
(1740508732.592967) can0 17C#000002F4B000206C
(1740508732.593131) can0 1DC#0202F416
(1740508732.593778) can0 164#00000017AB00003D
(1740508732.596149) can0 1A4#0000000000000009
(1740508732.596176) can0 1B0#00000000000048
(1740508732.596180) can0 1D0#000000000000000A
(1740508732.598298) can0 18E#00013D
(1740508732.600995) can0 158#000002BD0000001F
(1740508732.601022) can0 188#000000010006
(1740508732.602344) can0 136#0002000003000036
(1740508732.602508) can0 13A#2E1A3100000000B0
(1740508732.602708) can0 13F#0000000000000032
(1740508732.602965) can0 17C#000002F4B000207B
(1740508732.603728) can0 164#00000017AA000001
(1740508732.605175) can0 039#001B
(1740508732.608595) can0 18E#000001
(1740508732.610888) can0 158#000002BD0000002E
(1740508732.610913) can0 188#000000010015
(1740508732.612350) can0 136#0002000003000009
(1740508732.612512) can0 13A#2E1A310000000083
(1740508732.612710) can0 13F#0000000000000005
(1740508732.612963) can0 17C#000002F4B000204E
(1740508732.613132) can0 1DC#0202F425
(1740508732.613415) can0 18DA11F1#0322261100000000
(1740508732.613719) can0 164#00000017AA000010
(1740508732.613963) can0 18DAF111#1039622611FFF000
(1740508732.614210) can0 294#000C40043ECA003B
(1740508732.614494) can0 309#000000000000001B
(1740508732.615709) can0 1A4#0000000000000018
(1740508732.615958) can0 1B0#00000000000057
(1740508732.616180) can0 1D0#000000000000000A
(1740508732.618502) can0 18E#00011F
(1740508732.618758) can0 18DA11F1#3000000000000000
(1740508732.619009) can0 18DAF111#21000C0080007FD2
(1740508732.619307) can0 18DAF111#226A6A7D8B020500
(1740508732.619640) can0 18DAF111#235A000000000000
(1740508732.619910) can0 18DAF111#2400000000000000
(1740508732.620208) can0 18DAF111#2500000000000000
(1740508732.620512) can0 18DAF111#26000000000303FF
(1740508732.620780) can0 158#000002BD0000003D
(1740508732.620972) can0 188#000000010024
(1740508732.621306) can0 18DAF111#2700000000000000
(1740508732.621556) can0 18DAF111#2800005555555555
(1740508732.622272) can0 136#0002000003000018
(1740508732.622450) can0 13A#2E1B310000000091
(1740508732.622707) can0 13F#00000000FFBA0011
(1740508732.622957) can0 17C#000002FBB0002056
(1740508732.623280) can0 039#002A
(1740508732.623659) can0 164#00000017AB00002E
(1740508732.628604) can0 18E#00012E
(1740508732.630979) can0 158#000002BF0000000E
(1740508732.631002) can0 188#000000010033
(1740508732.632448) can0 136#0002000004000026
(1740508732.632473) can0 13A#2E1B3100000000A0
(1740508732.632731) can0 13F#0000000000000023
(1740508732.632959) can0 17C#000002FBB0002065
(1740508732.633103) can0 1DC#0202FB3D
(1740508732.633808) can0 164#00000017AA00003E
(1740508732.636172) can0 1A4#0000000000000027
(1740508732.636196) can0 1B0#00000000000066
(1740508732.636199) can0 1D0#000000000000000A
(1740508732.638296) can0 18E#00003E
(1740508732.640476) can0 039#0039
(1740508732.640501) can0 305#8035
(1740508732.640656) can0 158#000002C00000001B
(1740508732.640816) can0 188#000000010006
(1740508732.642496) can0 136#0002000004000035
(1740508732.642521) can0 13A#2E1C3100000000BE
(1740508732.642763) can0 13F#0000000000000032
(1740508732.642959) can0 17C#000002FBB0002074
(1740508732.643882) can0 164#00000017AB000000
(1740508732.648593) can0 18E#000001
(1740508732.650868) can0 158#000002C100000029
(1740508732.650884) can0 188#000000010015
(1740508732.652678) can0 136#0002000004000008
(1740508732.652710) can0 13A#2E1D310000000080
(1740508732.652721) can0 13F#0000000000000005
(1740508732.652977) can0 17C#000002FBB0002047
(1740508732.653134) can0 1DC#0202FB00
(1740508732.653896) can0 164#00000017AB00001F
(1740508732.654075) can0 294#000C40043ECA000E
(1740508732.655979) can0 1A4#0000000000000036
(1740508732.656003) can0 1B0#00000000000075
(1740508732.656235) can0 1D0#000000000000000A
(1740508732.657304) can0 039#000C
(1740508732.658196) can0 18E#00011F
(1740508732.660629) can0 158#000002C200000037
(1740508732.660822) can0 188#000000010024
(1740508732.662254) can0 136#0002000004000017
(1740508732.662524) can0 13A#2E1D31000000009F
(1740508732.662701) can0 13F#00000000FFE20016
(1740508732.662958) can0 17C#000002FEB0002053
(1740508732.663722) can0 164#00000017AA00002F
(1740508732.668534) can0 18E#00002F
(1740508732.670978) can0 158#000002C300000009
(1740508732.671003) can0 188#000000010033
(1740508732.672346) can0 136#0002000004000026
(1740508732.672527) can0 13A#2E1D3100000000AE
(1740508732.672725) can0 13F#0000000000000023
(1740508732.672956) can0 17C#000002FEB0002062
(1740508732.673235) can0 1DC#0202FE1C
(1740508732.673270) can0 320#000012
(1740508732.673531) can0 324#69330D3400000015
(1740508732.673753) can0 37C#0000000011
(1740508732.673968) can0 164#00000017AA00003E
(1740508732.674184) can0 40C#023632303653323C
(1740508732.674295) can0 039#001B
(1740508732.674489) can0 454#00F633
(1740508732.674671) can0 465#64644242282832
(1740508732.675701) can0 1A4#0000000000000009
(1740508732.675960) can0 1B0#00000000000048
(1740508732.676260) can0 1D0#000000000000000A
(1740508732.678529) can0 18E#00003E
(1740508732.680662) can0 158#000002C400000017
(1740508732.680871) can0 188#000000010006
(1740508732.682678) can0 136#0002000004000035
(1740508732.682710) can0 13A#2E1D3100000000BD
(1740508732.682722) can0 13F#0000000000000032
(1740508732.683009) can0 17C#000002FEB0002071
(1740508732.684280) can0 164#00000017AB000000
(1740508732.688331) can0 18E#000100
(1740508732.690980) can0 158#000002C500000025
(1740508732.691007) can0 188#000000010015
(1740508732.691230) can0 039#002A
(1740508732.692405) can0 136#0002000004000008
(1740508732.692450) can0 13A#2E1D310000000080
(1740508732.692914) can0 13F#0000000000000005
(1740508732.692954) can0 17C#000002FEB0002044
(1740508732.693111) can0 1DC#0202FE2B
(1740508732.693723) can0 164#00000017AB00001F
(1740508732.694017) can0 294#000C40043ECA001D
(1740508732.695827) can0 1A4#0000000000000018
(1740508732.695978) can0 1B0#00000000000057
(1740508732.696188) can0 1D0#000000000000000A
(1740508732.698275) can0 18E#000010
(1740508732.700871) can0 158#000002C400000035
(1740508732.700889) can0 188#000000010024
(1740508732.702697) can0 136#0002000004000017
(1740508732.702723) can0 13A#2E1D31000000009F
(1740508732.702726) can0 13F#0000000000AA0010
(1740508732.703021) can0 17C#000002EDB0002055
(1740508732.703879) can0 164#00000017AA00002F
(1740508732.708358) can0 18E#00002F
(1740508732.709160) can0 039#0039
(1740508732.710745) can0 158#000002C400000008
(1740508732.710801) can0 188#000000010033
(1740508732.712279) can0 136#0002000004000026
(1740508732.712690) can0 13A#2E1D3100000000AE
(1740508732.712727) can0 13F#0000000000000023
(1740508732.712959) can0 17C#000002EDB0002064
(1740508732.713104) can0 1DC#0202ED3C
(1740508732.713901) can0 164#00000017AB00003D
(1740508732.714139) can0 309#000000000000002A
(1740508732.714380) can0 428#000000043ECA0F
(1740508732.714589) can0 42A#0008
(1740508732.714861) can0 405#000004000000000B
(1740508732.715731) can0 1A4#0000000000000027
(1740508732.715923) can0 1B0#00000000000066
(1740508732.716180) can0 1D0#000000000000000A
(1740508732.718319) can0 18E#00013D
(1740508732.721087) can0 158#000002C300000018
(1740508732.721111) can0 188#000000010006
(1740508732.722411) can0 136#0002000004000035
(1740508732.722452) can0 13A#2E1D3100000000BD
(1740508732.722753) can0 13F#0000000000000032
(1740508732.722933) can0 17C#000002EDB0002073
(1740508732.723890) can0 164#00000017AA000001
(1740508732.726297) can0 039#000C
(1740508732.728273) can0 18E#000001
(1740508732.730863) can0 158#000002C300000027
(1740508732.730888) can0 188#000000010015
(1740508732.732553) can0 136#0002000004000008
(1740508732.732578) can0 13A#2E1E31000000008F
(1740508732.732744) can0 13F#0000000000000005
(1740508732.732944) can0 17C#000002EDB0002046
(1740508732.733115) can0 1DC#0202ED0F
(1740508732.733788) can0 164#00000017AA000010
(1740508732.734039) can0 294#000C40043ECA002C
(1740508732.735780) can0 1A4#0000000000000036
(1740508732.735983) can0 1B0#00000000000075
(1740508732.736180) can0 1D0#000000000000000A
(1740508732.738271) can0 18E#000010
(1740508732.740865) can0 158#000002C300000036
(1740508732.740889) can0 188#000000010024
(1740508732.742470) can0 136#0002000004000017
(1740508732.742486) can0 13A#2E1E31000000009E
(1740508732.742715) can0 13F#00000000FF74001B
(1740508732.742955) can0 17C#000002FBB0002056
(1740508732.743109) can0 039#001B
(1740508732.743229) can0 305#8008
(1740508732.743745) can0 164#00000017AB00002E
(1740508732.748296) can0 18E#00012E
(1740508732.750946) can0 158#000002C300000009
(1740508732.750971) can0 188#000000010033
(1740508732.752419) can0 136#0002000004000026
(1740508732.752442) can0 13A#2E1E3100000000AD
(1740508732.752721) can0 13F#0000000000000023
(1740508732.752939) can0 17C#000002FBB0002065
(1740508732.753113) can0 1DC#0202FB1F
(1740508732.753887) can0 164#00000017AB00003D
(1740508732.756060) can0 1A4#0000000000000009
(1740508732.756084) can0 1B0#00000000000048
(1740508732.756274) can0 1D0#000000000000000A
(1740508732.758297) can0 18E#00003E
(1740508732.760279) can0 039#002A
(1740508732.760631) can0 158#000002C300000018
(1740508732.760814) can0 188#000000010006
(1740508732.762558) can0 136#0002000004000035
(1740508732.762585) can0 13A#2E1E3100000000BC
(1740508732.762735) can0 13F#0000000000000032
(1740508732.762961) can0 17C#000002FBB0002074
(1740508732.763873) can0 164#00000017AA000001
(1740508732.768539) can0 18E#000100
(1740508732.770981) can0 158#000002C300000027
(1740508732.771009) can0 188#000000010015
(1740508732.772362) can0 136#0002000004000008
(1740508732.772515) can0 13A#2E1E31000000008F
(1740508732.772743) can0 13F#0000000000000005
(1740508732.772978) can0 17C#000002FBB0002047
(1740508732.773114) can0 1DC#0202FB2E
(1740508732.773290) can0 320#000021
(1740508732.773512) can0 324#69330D3400000024
(1740508732.773777) can0 37C#0000000020
(1740508732.774113) can0 164#00000017AB00001F
(1740508732.774427) can0 294#000C40043ECA003B
(1740508732.775981) can0 1A4#0000000000000018
(1740508732.776006) can0 1B0#00000000000057
(1740508732.776278) can0 1D0#000000000000000A
(1740508732.777303) can0 039#0039
(1740508732.778254) can0 18E#00011F
(1740508732.780870) can0 158#000002C400000035
(1740508732.780896) can0 188#000000010024
(1740508732.782555) can0 136#0002000004000017
(1740508732.782583) can0 13A#2E1D31000000009F
(1740508732.782733) can0 13F#00000000FF880016
(1740508732.782960) can0 17C#00000307B0002058
(1740508732.783972) can0 164#00000017AB00002E
(1740508732.788222) can0 18E#00002F
(1740508732.790665) can0 158#000002C500000007
(1740508732.790872) can0 188#000000010033
(1740508732.792263) can0 136#0002000004000026
(1740508732.792512) can0 13A#2E1D3100000000AE
(1740508732.792684) can0 13F#0000000000000023
(1740508732.792964) can0 17C#00000307B0002067
(1740508732.793269) can0 1DC#0203073F
(1740508732.793655) can0 164#00000017AB00003D
(1740508732.795134) can0 039#000C
(1740508732.795732) can0 1A4#0000000000000027
(1740508732.795994) can0 1B0#00000000000066
(1740508732.796205) can0 1D0#000000000000000A
(1740508732.798242) can0 18E#00003E
(1740508732.800664) can0 158#000002C700000014
(1740508732.801080) can0 188#000000010006
(1740508732.802268) can0 136#0002000004000035
(1740508732.802534) can0 13A#2E1D3100000000BD
(1740508732.802707) can0 13F#0000000000000032
(1740508732.802963) can0 17C#00000307B0002076
(1740508732.803780) can0 164#00000017AB000000
(1740508732.808493) can0 18E#000100
(1740508732.810817) can0 158#000002C900000021
(1740508732.810840) can0 188#000000010015
(1740508732.812262) can0 136#0002000004000008
(1740508732.812665) can0 13A#2E1C310000000081
(1740508732.812702) can0 13F#0000000000000005
(1740508732.812934) can0 17C#00000307B0002049
(1740508732.813103) can0 1DC#02030702
(1740508732.813233) can0 039#001B
(1740508732.813752) can0 164#00000017AB00001F
(1740508732.814001) can0 294#000C40043ECA000E
(1740508732.814256) can0 309#0000000000000039
(1740508732.815760) can0 1A4#0000000000000036
(1740508732.816186) can0 1B0#00000000000075
(1740508732.816233) can0 1D0#000000000000000A
(1740508732.818201) can0 18E#000010
(1740508732.820660) can0 158#000002CD0000003C
(1740508732.820899) can0 188#000000010024
(1740508732.822472) can0 136#0002000004000017
(1740508732.822498) can0 13A#2E1C310000000090
(1740508732.822750) can0 13F#00000000FF1A001B
(1740508732.822937) can0 17C#0000031EB0002050
(1740508732.823777) can0 164#00000017AA00002F
(1740508732.828269) can0 18E#00002F
(1740508732.830171) can0 039#002A
(1740508732.830623) can0 158#000002CF0000000D
(1740508732.831034) can0 188#000000010033
(1740508732.832491) can0 136#0002000004000026
(1740508732.832515) can0 13A#2E1C3100000000AF
(1740508732.832768) can0 13F#0000000000000023
(1740508732.832934) can0 17C#0000031EB000206F
(1740508732.833103) can0 1DC#02031E19
(1740508732.833770) can0 164#00000017AB00003D
(1740508732.836166) can0 1A4#0000000000000009
(1740508732.836198) can0 1B0#00000000000048
(1740508732.836209) can0 1D0#000000000000000A
(1740508732.836518) can0 18DA11F1#0322261100000000
(1740508732.836839) can0 18DAF111#1039622611FFF000
(1740508732.838536) can0 18E#00013D
(1740508732.840837) can0 158#000002D500000015
(1740508732.840862) can0 188#000000010006
(1740508732.841876) can0 18DA11F1#3000000000000000
(1740508732.842143) can0 18DAF111#21000C00800080C1
(1740508732.842359) can0 136#0002000003000036
(1740508732.842612) can0 13A#2E1A3100000000B0
(1740508732.842865) can0 13F#0000000000000032
(1740508732.843119) can0 17C#0000031EB000207E
(1740508732.843358) can0 18DAF111#226B6A7D42020600
(1740508732.843659) can0 18DAF111#235B000000000000
(1740508732.843908) can0 164#00000017AB000000
(1740508732.844210) can0 18DAF111#2400000000000000
(1740508732.844506) can0 18DAF111#2500000000000000
(1740508732.844807) can0 18DAF111#26000000000303FF
(1740508732.845103) can0 18DAF111#2700000000000000
(1740508732.845406) can0 18DAF111#2800005555555555
(1740508732.847254) can0 039#0039
(1740508732.847667) can0 305#8017
(1740508732.848213) can0 18E#000001
(1740508732.850981) can0 158#000002D800000021
(1740508732.851006) can0 188#000000010015
(1740508732.852272) can0 136#0002000003000009
(1740508732.852529) can0 13A#2E1A310000000083
(1740508732.852686) can0 13F#00000000FEC0000C
(1740508732.852937) can0 17C#0000033EB000204F
(1740508732.853307) can0 1DC#02033E26
(1740508732.853781) can0 164#00000017AB00001F
(1740508732.854114) can0 294#000C40043ECA001D
(1740508732.856273) can0 1A4#0000000000000018
(1740508732.856298) can0 1B0#00000000000057
(1740508732.856301) can0 1D0#000000000000000A
(1740508732.858590) can0 18E#000010
(1740508732.860978) can0 158#000002DF00000039
(1740508732.861002) can0 188#000000010024
(1740508732.862423) can0 136#0002000003000018
(1740508732.862446) can0 13A#2E18310000000094
(1740508732.862756) can0 13F#0000000000000014
(1740508732.862932) can0 17C#0000033EB000205E
(1740508732.863701) can0 164#00000017AB00002E
(1740508732.865300) can0 039#000C
(1740508732.868383) can0 18E#00012E
(1740508732.870817) can0 158#000002E300000007
(1740508732.870840) can0 188#000000010033
(1740508732.872661) can0 136#0002000002000028
(1740508732.872685) can0 13A#2E163100000000A5
(1740508732.872697) can0 13F#0000000000000023
(1740508732.873088) can0 17C#0000033EB000206D
(1740508732.873121) can0 1DC#02033E35
(1740508732.873255) can0 320#000030
(1740508732.873482) can0 324#69330D3400000033
(1740508732.873686) can0 37C#000000003F
(1740508732.874167) can0 164#00000017AB00003D
(1740508732.875830) can0 1A4#0000000000000027
(1740508732.876078) can0 1B0#00000000000066
(1740508732.876256) can0 1D0#000000000000000A
(1740508732.877762) can0 18E#00003E
(1740508732.880621) can0 158#000002EB0000001E
(1740508732.881107) can0 188#000000010006
(1740508732.882520) can0 136#0002000002000037
(1740508732.882546) can0 13A#2E153100000000B5
(1740508732.882685) can0 13F#0000000000000032
(1740508732.882938) can0 17C#0000033EB000207C
(1740508732.883105) can0 039#001B
(1740508732.883874) can0 164#00000017AA000001
(1740508732.888278) can0 18E#000001
(1740508732.890689) can0 158#000002F400000023
(1740508732.890881) can0 188#000000010015
(1740508732.892555) can0 136#000200000100000B
(1740508732.892580) can0 13A#2E1231000000008B
(1740508732.892678) can0 13F#00000000FEF20007
(1740508732.892923) can0 17C#00000359B0002042
(1740508732.893106) can0 1DC#0203590B
(1740508732.893779) can0 164#00000017AB00001F
(1740508732.894041) can0 294#000C40043ECA002C
(1740508732.895801) can0 1A4#0000000000000036
(1740508732.896234) can0 1B0#00000000000075
(1740508732.896268) can0 1D0#000000000000000A
(1740508732.898242) can0 18E#00011F
(1740508732.900692) can0 158#000002F80000003E
(1740508732.900808) can0 188#000000010024
(1740508732.901113) can0 039#002A
(1740508732.902381) can0 136#000200000000001B
(1740508732.902422) can0 13A#2E0F31000000009E
(1740508732.902722) can0 13F#0000000000000014
(1740508732.902908) can0 17C#00000359B0002051
(1740508732.903725) can0 164#00000017AB00002E
(1740508732.908268) can0 18E#00002F
(1740508732.910690) can0 158#0000030300000004
(1740508732.910850) can0 188#000000010033
(1740508732.912245) can0 136#000200000000002A
(1740508732.912667) can0 13A#2E0C3100000000A0
(1740508732.912704) can0 13F#0000000000000023
(1740508732.912939) can0 17C#0000035930002068
(1740508732.913141) can0 1DC#0203591A
(1740508732.913790) can0 164#00000017AA00003E
(1740508732.914309) can0 309#000000000000000C
(1740508732.915963) can0 1A4#0000000000000009
(1740508732.915988) can0 1B0#00000000000048
(1740508732.916283) can0 1D0#000000000000000A
(1740508732.918349) can0 039#0039
(1740508732.918374) can0 18E#00003E
(1740508732.920697) can0 158#0000030D00000019
(1740508732.920810) can0 188#000000010006
(1740508732.922483) can0 136#0002000000000039
(1740508732.922508) can0 13A#2E083100000000B3
(1740508732.922749) can0 13F#00000000FEAC003F
(1740508732.922939) can0 17C#0000037B30002073
(1740508732.923799) can0 164#00000017AA000001
(1740508732.928536) can0 18E#000100
(1740508732.930974) can0 158#0000031300000021
(1740508732.930999) can0 188#000000010015
(1740508732.932384) can0 136#000200000000000C
(1740508732.932423) can0 13A#2E0431000000008A
(1740508732.932754) can0 13F#0000000000000005
(1740508732.932909) can0 17C#0000037B30002046
(1740508732.933137) can0 1DC#02037B25
(1740508732.933749) can0 164#00000017AB00001F
(1740508732.934002) can0 294#000C40043ECA003B
(1740508732.935478) can0 039#000C
(1740508732.935779) can0 1A4#0000000000000018
(1740508732.935989) can0 1B0#00000000000057
(1740508732.936236) can0 1D0#000000000000000A
(1740508732.938304) can0 18E#000010
(1740508732.940982) can0 158#0000031F00000034
(1740508732.941008) can0 188#000000010024
(1740508732.942388) can0 136#000200000000001B
(1740508732.942435) can0 13A#2E0131000000009C
(1740508732.942684) can0 13F#0000000000000014
(1740508732.942921) can0 17C#0000037B30002055
(1740508732.943760) can0 164#00000017AB00002E
(1740508732.948245) can0 18E#00002F
(1740508732.950614) can0 158#0000032B0000000A
(1740508732.950810) can0 188#000000010033
(1740508732.952239) can0 136#000200000000002A
(1740508732.952463) can0 13A#2E003100000000AC
(1740508732.952693) can0 13F#00000000FF06002F
(1740508732.953103) can0 17C#0000039430002069
(1740508732.953152) can0 1DC#02039439
(1740508732.953260) can0 039#001B
(1740508732.953704) can0 164#00000017AB00003D
(1740508732.953840) can0 305#8026
(1740508732.956564) can0 1A4#0000000000000027
(1740508732.956592) can0 1B0#00000000000066
(1740508732.956596) can0 1D0#000000000000000A
(1740508732.958313) can0 18E#00013D
(1740508732.961020) can0 158#000003380000001B
(1740508732.961048) can0 188#000000010006
(1740508732.962464) can0 136#0002000000000039
(1740508732.962492) can0 13A#2E003100000000BB
(1740508732.962711) can0 13F#0000000000000032
(1740508732.962990) can0 17C#0000039430002078
(1740508732.963884) can0 164#00000017AA000001
(1740508732.967941) can0 18E#000001
(1740508732.970193) can0 039#002A
(1740508732.970655) can0 158#0000033D00000025
(1740508732.970824) can0 188#000000010015
(1740508732.972322) can0 136#000200000000000C
(1740508732.972464) can0 13A#2E0031000000008E
(1740508732.972756) can0 13F#0000000000000005
(1740508732.972991) can0 17C#000003943000204B
(1740508732.973118) can0 1DC#0203940C
(1740508732.973327) can0 320#000003
(1740508732.973497) can0 324#69330D3400000006
(1740508732.973734) can0 37C#0000000002
(1740508732.974002) can0 40C#0330373433330005
(1740508732.974214) can0 164#00000017AB00001F
(1740508732.974310) can0 454#00F606
(1740508732.974621) can0 294#000C40043ECA000E
(1740508732.974771) can0 465#64644242282805
(1740508732.975854) can0 1A4#0000000000000036
(1740508732.976102) can0 1B0#00000000000075
(1740508732.976328) can0 1D0#000000000000000A
(1740508732.978275) can0 18E#000010
(1740508732.980867) can0 158#0000034900000037
(1740508732.980894) can0 188#000000010024
(1740508732.982322) can0 136#000200000000001B
(1740508732.982422) can0 13A#2E0031000000009D
(1740508732.982765) can0 13F#0000000000000014
(1740508732.982925) can0 17C#000003943000205A
(1740508732.984005) can0 164#00000017AB00002E
(1740508732.987501) can0 039#0039
(1740508732.987785) can0 18E#00002F
(1740508732.990950) can0 158#000003550000000D
(1740508732.990977) can0 188#000000010033
(1740508732.992395) can0 136#000200000000002A
(1740508732.992422) can0 13A#2E003100000000AC
(1740508732.992705) can0 13F#00000000FEF20025
(1740508732.992959) can0 17C#000003AF3000206D
(1740508732.993113) can0 1DC#0203AF1F
(1740508732.993758) can0 164#00000017AB00003D
(1740508732.995980) can0 1A4#0000000000000009
(1740508732.996027) can0 1B0#00000000000048
(1740508732.996313) can0 1D0#000000000000000A
(1740508732.998434) can0 18E#00003E
(1740508733.000955) can0 158#0000036000000010
(1740508733.000983) can0 188#000000010006
(1740508733.002401) can0 136#0002000000000039
(1740508733.002428) can0 13A#2E003100000000BB
(1740508733.002708) can0 13F#0000000000000032
(1740508733.002959) can0 17C#000003AF3000207C
(1740508733.003806) can0 164#00000017AA000001
(1740508733.005275) can0 039#000C
(1740508733.008501) can0 18E#000001
(1740508733.010824) can0 158#0000036A00000025
(1740508733.010852) can0 188#000000010015
(1740508733.012522) can0 136#000200000000000C
(1740508733.012551) can0 13A#2E0031000000008E
(1740508733.012689) can0 13F#0000000000000005
(1740508733.012978) can0 17C#000003AF3000204F
(1740508733.013110) can0 1DC#0203AF2E
(1740508733.013937) can0 164#00000017AB00001F
(1740508733.014203) can0 294#000C40043ECA001D
(1740508733.014500) can0 309#000000000000001B
(1740508733.014711) can0 428#000000043ECA1E
(1740508733.014884) can0 42A#0017
(1740508733.015153) can0 405#000004000000001A
(1740508733.015785) can0 1A4#0000000000000018
(1740508733.016096) can0 1B0#00000000000057
(1740508733.016340) can0 1D0#000000000000000A
(1740508733.018246) can0 18E#00011F
(1740508733.021055) can0 158#0000037500000038
(1740508733.021103) can0 188#000000010024
(1740508733.022396) can0 136#000200000000001B
(1740508733.022444) can0 039#001B
(1740508733.022553) can0 13A#2E0031000000009D
(1740508733.022830) can0 13F#00000000FF2E0016
(1740508733.023092) can0 17C#000003C430002057
(1740508733.023844) can0 164#00000017AB00002E
(1740508733.028515) can0 18E#00002F
(1740508733.030953) can0 158#0000037F00000001
(1740508733.031001) can0 188#000000010033
(1740508733.032384) can0 136#000200000000002A
(1740508733.032635) can0 13A#2E003100000000AC
(1740508733.032663) can0 13F#0000000000000023
(1740508733.032960) can0 17C#000003C430002066
(1740508733.033115) can0 1DC#0203C436
(1740508733.033874) can0 164#00000017AA00003E
(1740508733.036024) can0 1A4#0000000000000027
(1740508733.036050) can0 1B0#00000000000066
(1740508733.036337) can0 1D0#000000000000000A
(1740508733.038270) can0 18E#00003E
(1740508733.039440) can0 039#002A
(1740508733.040842) can0 158#0000038900000015
(1740508733.040859) can0 188#000000010006
(1740508733.042298) can0 136#0002000000000039
(1740508733.042410) can0 13A#2E003100000000BB
(1740508733.042678) can0 13F#0000000000000032
(1740508733.042947) can0 17C#000003C430002075
(1740508733.043899) can0 164#00000017AB000000
(1740508733.048273) can0 18E#000100
(1740508733.050662) can0 158#0000039300000029
(1740508733.050819) can0 188#000000010015
(1740508733.052544) can0 136#000200000000000C
(1740508733.052572) can0 13A#2E0031000000008E
(1740508733.052658) can0 13F#00000000FF060001
(1740508733.052958) can0 17C#000003DD3000204E
(1740508733.053114) can0 1DC#0203DD0F
(1740508733.053902) can0 164#00000017AB00001F
(1740508733.053969) can0 294#000C40043ECA002C
(1740508733.056176) can0 1A4#0000000000000036
(1740508733.056223) can0 1B0#00000000000075
(1740508733.056227) can0 039#0039
(1740508733.056404) can0 1D0#000000000000000A
(1740508733.056734) can0 305#8035
(1740508733.058356) can0 18E#000010
(1740508733.060980) can0 158#0000039C0000003F
(1740508733.061027) can0 188#000000010024
(1740508733.062399) can0 136#000200000000001B
(1740508733.062447) can0 13A#2E0031000000009D
(1740508733.062666) can0 13F#0000000000000014
(1740508733.062959) can0 17C#000003DD3000205D
(1740508733.063832) can0 164#00000017AA00002F
(1740508733.068528) can0 18E#00002F
(1740508733.070953) can0 158#000003A500000008
(1740508733.071000) can0 188#000000010033
(1740508733.072383) can0 136#000200000000002A
(1740508733.072624) can0 13A#2E003100000000AC
(1740508733.072689) can0 13F#0000000000000023
(1740508733.072991) can0 17C#000003DD3000206C
(1740508733.073116) can0 1DC#0203DD1E
(1740508733.073294) can0 320#000012
(1740508733.073388) can0 039#000C
(1740508733.073705) can0 324#69330D3400000015
(1740508733.073812) can0 37C#0000000011
(1740508733.074226) can0 164#00000017AB00003D
(1740508733.076008) can0 1A4#0000000000000009
(1740508733.076107) can0 1B0#00000000000048
(1740508733.076375) can0 1D0#000000000000000A
(1740508733.078434) can0 18E#00013D
(1740508733.080694) can0 158#000003AD0000001F
(1740508733.080811) can0 188#000000010006
(1740508733.082485) can0 136#0002000000000039
(1740508733.082513) can0 13A#2E003100000000BB
(1740508733.082643) can0 13F#00000000FF4C0034
(1740508733.082947) can0 17C#000003EF30002078
(1740508733.083932) can0 164#00000017AB000000
(1740508733.088598) can0 18E#000001
(1740508733.090234) can0 039#001B
(1740508733.090653) can0 158#000003B500000025
(1740508733.090822) can0 188#000000010015
(1740508733.092525) can0 136#000200000000000C
(1740508733.092553) can0 13A#2E0031000000008E
(1740508733.092661) can0 13F#0000000000000005
(1740508733.092963) can0 17C#000003EF3000204B
(1740508733.093130) can0 1DC#0203EF2A
(1740508733.093753) can0 164#00000017AB00001F
(1740508733.093994) can0 294#000C40043ECA003B
(1740508733.095994) can0 1A4#0000000000000018
(1740508733.096042) can0 1B0#00000000000057
(1740508733.096348) can0 1D0#000000000000000A
(1740508733.098274) can0 18E#000010
(1740508733.101004) can0 158#000003BB0000003E
(1740508733.101031) can0 188#000000010024
(1740508733.102271) can0 136#000200000000001B
(1740508733.102408) can0 13A#2E0031000000009D
(1740508733.102678) can0 13F#0000000000000014
(1740508733.102978) can0 17C#000003EF3000205A
(1740508733.103818) can0 164#00000017AB00002E
(1740508733.108195) can0 039#002A
(1740508733.108266) can0 18E#00012E
(1740508733.110778) can0 158#000003C200000009
(1740508733.110827) can0 188#000000010033
(1740508733.112220) can0 136#000200000000002A
(1740508733.112483) can0 13A#2E003100000000AC
(1740508733.112707) can0 13F#00000000FF92002A
(1740508733.112976) can0 17C#000003FA3000206D
(1740508733.113136) can0 1DC#0203FA3D
(1740508733.113783) can0 164#00000017AB00003D
(1740508733.114163) can0 309#000000000000002A
(1740508733.115998) can0 1A4#0000000000000027
(1740508733.116045) can0 1B0#00000000000066
(1740508733.116350) can0 1D0#000000000000000A
(1740508733.118320) can0 18E#00003E
(1740508733.121000) can0 158#000003C800000012
(1740508733.121027) can0 188#000000010006
(1740508733.122360) can0 136#0002000000000039
(1740508733.122409) can0 13A#2E003100000000BB
(1740508733.122765) can0 13F#0000000000000032
(1740508733.122918) can0 17C#000003FA3000207C
(1740508733.123885) can0 164#00000017AA000001
(1740508733.126283) can0 039#0039
(1740508733.127895) can0 18E#00030E
(1740508733.130677) can0 158#000003CE0000002B
(1740508733.130814) can0 188#000000010015
(1740508733.132244) can0 136#000200000000000C
(1740508733.132508) can0 13A#2E0031000000008E
(1740508733.132685) can0 13F#0000000000000005
(1740508733.132945) can0 17C#000003FA3000204F
(1740508733.133147) can0 1DC#0203FA00
(1740508733.133782) can0 164#00000017AB00001F
(1740508733.134080) can0 294#000C40043ECA000E
(1740508733.136021) can0 1A4#0000000000000036
(1740508733.136065) can0 1B0#00000000000075
(1740508733.136383) can0 1D0#000000000000000A
(1740508733.138000) can0 18E#00011F
(1740508733.140680) can0 158#000003D300000034
(1740508733.140823) can0 188#000000010024
(1740508733.142561) can0 136#000200000000001B
(1740508733.142609) can0 13A#2E0031000000009D
(1740508733.142661) can0 13F#00000000FF880016
(1740508733.142932) can0 17C#0000040630002050
(1740508733.143189) can0 039#000C
(1740508733.143757) can0 164#00000017AB00002E
(1740508733.148348) can0 18E#00002F
(1740508733.151021) can0 158#000003D900000001
(1740508733.151068) can0 188#000000010033
(1740508733.152456) can0 136#000200000000002A
(1740508733.152505) can0 13A#2E003100000000AC
(1740508733.152683) can0 13F#0000000000000023
(1740508733.152992) can0 17C#000004063000206F
(1740508733.153129) can0 1DC#02040611
(1740508733.153737) can0 164#00000017AB00003D
(1740508733.156006) can0 1A4#0000000000000009
(1740508733.156251) can0 1B0#00000000000048
(1740508733.156336) can0 1D0#000000000000000A
(1740508733.158326) can0 18E#00023C
(1740508733.160227) can0 039#001B
(1740508733.160416) can0 305#8008
(1740508733.160673) can0 158#000003DD0000001C
(1740508733.160891) can0 188#000000010006
(1740508733.162188) can0 136#0002000000000039
(1740508733.162422) can0 13A#2E003100000000BB
(1740508733.162667) can0 13F#0000000000000032
(1740508733.162923) can0 17C#000004063000207E
(1740508733.163760) can0 164#00000017AB000000
(1740508733.168327) can0 18E#00030E
(1740508733.170985) can0 158#000003E200000025
(1740508733.171013) can0 188#000000010015
(1740508733.172276) can0 136#000200000000000C
(1740508733.172457) can0 13A#2E0031000000008E
(1740508733.172727) can0 13F#00000000FF880007
(1740508733.172927) can0 17C#0000041230002044
(1740508733.173212) can0 1DC#02041223
(1740508733.173243) can0 320#000021
(1740508733.173523) can0 324#69330D3600000022
(1740508733.173658) can0 37C#0000000020
(1740508733.174255) can0 164#00000017AB00001F
(1740508733.174483) can0 294#000C40043ECA001D
(1740508733.175910) can0 1A4#0000000000000018
(1740508733.176180) can0 1B0#00000000000057
(1740508733.176411) can0 1D0#000000000000000A
(1740508733.177679) can0 039#002A
(1740508733.178253) can0 18E#00011F
(1740508733.180979) can0 158#000003E600000030
(1740508733.181005) can0 188#000000010024
(1740508733.182271) can0 136#000200000000001B
(1740508733.182456) can0 13A#2E0031000000009D
(1740508733.182701) can0 13F#0000000000000014
(1740508733.182896) can0 17C#0000041230002053
(1740508733.183868) can0 164#00000017AB00002E
(1740508733.188233) can0 18E#00022D
(1740508733.190867) can0 158#000003EA0000000F
(1740508733.190894) can0 188#000000010033
(1740508733.192419) can0 136#000200000000002A
(1740508733.192446) can0 13A#2E003100000000AC
(1740508733.192736) can0 13F#00000000FFBA0020
(1740508733.192961) can0 17C#000004193000206B
(1740508733.193117) can0 1DC#0204193B
(1740508733.193698) can0 164#00000017AB00003D
(1740508733.195444) can0 039#0039
(1740508733.195886) can0 1A4#0000000000000027
(1740508733.196060) can0 1B0#00000000000066
(1740508733.196362) can0 1D0#000000000000000A
(1740508733.198301) can0 18E#00033B
(1740508733.200952) can0 158#000003EE0000001A
(1740508733.200979) can0 188#000000010006
(1740508733.202371) can0 136#0002000000000039
(1740508733.202400) can0 13A#2E003100000000BB
(1740508733.202721) can0 13F#0000000000000032
(1740508733.202898) can0 17C#000004193000207A
(1740508733.203884) can0 164#00000017AA000001
(1740508733.208525) can0 18E#000100
(1740508733.210938) can0 158#000003F200000024
(1740508733.210966) can0 188#000000010015
(1740508733.212218) can0 136#000200000000000C
(1740508733.212472) can0 13A#2E0031000000008E
(1740508733.212633) can0 13F#0000000000000005
(1740508733.212881) can0 17C#000004193000204D
(1740508733.213103) can0 1DC#0204190E
(1740508733.213252) can0 039#000C
(1740508733.213687) can0 164#00000017AA000010
(1740508733.213942) can0 294#000C40043ECA002C
(1740508733.214228) can0 309#0000000000000039
(1740508733.215973) can0 1A4#0000000000000036
(1740508733.216109) can0 1B0#00000000000075
(1740508733.216333) can0 1D0#000000000000000A
(1740508733.218249) can0 18E#00021E
(1740508733.221040) can0 158#000003F500000030
(1740508733.221067) can0 188#000000010024
(1740508733.222456) can0 136#000200000000001B
(1740508733.222483) can0 13A#2E0031000000009D
(1740508733.222756) can0 13F#00000000FFBA0011
(1740508733.222906) can0 17C#0000042030002054
(1740508733.223878) can0 164#00000017AB00002E
(1740508733.228500) can0 18E#00032C
(1740508733.230344) can0 039#001B
(1740508733.230644) can0 158#000003F90000000F
(1740508733.230843) can0 188#000000010033
(1740508733.232645) can0 136#000200000000002A
(1740508733.232673) can0 13A#2E003100000000AC
(1740508733.232676) can0 13F#0000000000000023
(1740508733.232996) can0 17C#0000042030002063
(1740508733.233089) can0 1DC#02042015
(1740508733.234045) can0 164#00000017AB00003D
(1740508733.236005) can0 1A4#0000000000000009
(1740508733.236186) can0 1B0#00000000000048
(1740508733.236356) can0 1D0#000000000000000A
(1740508733.238370) can0 18E#00013D
(1740508733.240879) can0 158#000003FD0000001A
(1740508733.240906) can0 188#000000010006
(1740508733.241634) can0 18DA11F1#0322261100000000
(1740508733.241945) can0 18DAF111#1039622611FFF000
(1740508733.242230) can0 136#0002000000000039
(1740508733.242483) can0 13A#2E003100000000BB
(1740508733.242722) can0 13F#0000000000000032
(1740508733.242922) can0 17C#0000042030002072
(1740508733.243866) can0 164#00000017AB000000
(1740508733.247519) can0 18DA11F1#3000000000000000
(1740508733.247546) can0 18DAF111#21000C00801A7973
(1740508733.247549) can0 18DAF111#226C6A7E68020600
(1740508733.247834) can0 18DAF111#235B000000000000
(1740508733.248095) can0 18DAF111#2400000000000000
(1740508733.248325) can0 18E#00020F
(1740508733.248346) can0 039#002A
(1740508733.248687) can0 18DAF111#2500000000000000
(1740508733.248984) can0 18DAF111#26000000000303FF
(1740508733.249289) can0 18DAF111#2700000000000000
(1740508733.249551) can0 18DAF111#2800005555555555
(1740508733.250964) can0 158#000003FF00000027
(1740508733.250991) can0 188#000000010015
(1740508733.252400) can0 136#000200000000000C
(1740508733.252428) can0 13A#2E0031000000008E
(1740508733.252726) can0 13F#00000000FF92000C
(1740508733.252971) can0 17C#0000042B3000204A
(1740508733.253170) can0 1DC#02042B29
(1740508733.253769) can0 164#00000017AA000010
(1740508733.254060) can0 294#000C40043ECA003B
(1740508733.256615) can0 1A4#0000000000000018
(1740508733.256642) can0 1B0#00000000000057
(1740508733.256645) can0 1D0#000000000000000A
(1740508733.258528) can0 18E#00031D
(1740508733.260966) can0 158#0000040300000030
(1740508733.260993) can0 188#000000010024
(1740508733.262354) can0 136#000200000000001B
(1740508733.262413) can0 13A#2E0131000000009C
(1740508733.262683) can0 13F#0000000000000014
(1740508733.262987) can0 17C#0000042B30002059
(1740508733.263757) can0 164#00000017AA00002F
(1740508733.265360) can0 039#0039
(1740508733.265387) can0 305#8017
(1740508733.268445) can0 18E#00022D
(1740508733.270963) can0 158#0000040600000000
(1740508733.270990) can0 188#000000010033
(1740508733.272260) can0 136#000200000000002A
(1740508733.272405) can0 13A#2E013100000000AB
(1740508733.272762) can0 13F#0000000000000023
(1740508733.272908) can0 17C#0000042B30002068
(1740508733.273152) can0 1DC#02042B38
(1740508733.273232) can0 320#000030
(1740508733.273534) can0 324#69330D3600000031
(1740508733.273681) can0 37C#000000003F
(1740508733.273950) can0 40C#0000000004000013
(1740508733.274062) can0 454#00F615
(1740508733.274375) can0 164#00000017AB00003D
(1740508733.274513) can0 465#64644242282814
(1740508733.275950) can0 1A4#0000000000000027
(1740508733.276145) can0 1B0#00000000000066
(1740508733.276429) can0 1D0#000000000000000A
(1740508733.278266) can0 18E#00023C
(1740508733.280668) can0 158#0000040B0000001A
(1740508733.280805) can0 188#000000010006
(1740508733.282216) can0 136#0002000000000039
(1740508733.282309) can0 039#000C
(1740508733.282604) can0 13A#2E023100000000B9
(1740508733.282804) can0 13F#00000000FFCE003A
(1740508733.283034) can0 17C#0000043030002071
(1740508733.283905) can0 164#00000017AB000000
(1740508733.288618) can0 18E#00030E
(1740508733.291384) can0 158#0000040E00000026
(1740508733.291432) can0 188#000000010015
(1740508733.292192) can0 136#000200000000000C
(1740508733.292434) can0 13A#2E0331000000008B
(1740508733.292714) can0 13F#0000000000000005
(1740508733.292888) can0 17C#0000043030002044
(1740508733.293117) can0 1DC#02043005
(1740508733.293843) can0 164#00000017AA000010
(1740508733.294011) can0 294#000C40043ECA000E
(1740508733.296608) can0 1A4#0000000000000036
(1740508733.296655) can0 1B0#00000000000075
(1740508733.296658) can0 1D0#000000000000000A
(1740508733.298322) can0 18E#00021E
(1740508733.300549) can0 039#001B
(1740508733.300663) can0 158#0000041000000032
(1740508733.300798) can0 188#000000010024
(1740508733.302249) can0 136#000200000000001B
(1740508733.302382) can0 13A#2E0331000000009A
(1740508733.302685) can0 13F#0000000000000014
(1740508733.302917) can0 17C#0000043030002053
(1740508733.303879) can0 164#00000017AB00002E
(1740508733.308308) can0 18E#00022D
(1740508733.311017) can0 158#0000041200000003
(1740508733.311063) can0 188#000000010033
(1740508733.312409) can0 136#000200000000002A
(1740508733.312457) can0 13A#2E043100000000A8
(1740508733.312654) can0 13F#00000000FFD80020
(1740508733.312973) can0 17C#000004343000206E
(1740508733.313070) can0 1DC#02043410
(1740508733.313882) can0 164#00000017AB00003D
(1740508733.314192) can0 309#000000000000000C
(1740508733.314393) can0 428#000000043ECA2D
(1740508733.314543) can0 42A#0026
(1740508733.314922) can0 405#0000040000000029
(1740508733.315905) can0 1A4#0000000000000009
(1740508733.316142) can0 1B0#00000000000048
(1740508733.316364) can0 1D0#000000000000000A
(1740508733.317324) can0 039#002A
(1740508733.318279) can0 18E#00033B
(1740508733.320904) can0 158#0000041400000010
(1740508733.320949) can0 188#000000010006
(1740508733.322377) can0 136#0002000000000039
(1740508733.322424) can0 13A#2E053100000000B6
(1740508733.322686) can0 13F#0000000000000032
(1740508733.322971) can0 17C#000004343000207D
(1740508733.323915) can0 164#00000017AB000000
(1740508733.328617) can0 18E#000001
(1740508733.331011) can0 158#000004160000002D
(1740508733.331058) can0 188#000000010015
(1740508733.332377) can0 136#000200000000000C
(1740508733.332424) can0 13A#2E06310000000088
(1740508733.332693) can0 13F#00000000FFEC000D
(1740508733.332968) can0 17C#000004363000204E
(1740508733.333150) can0 1DC#0204362D
(1740508733.333808) can0 164#00000017AB00001F
(1740508733.334076) can0 294#000C40043ECA001D
(1740508733.334157) can0 039#0039
(1740508733.336607) can0 1A4#0000000000000018
(1740508733.336635) can0 1B0#00000000000057
(1740508733.336638) can0 1D0#000000000000000A
(1740508733.338304) can0 18E#00021E
(1740508733.341017) can0 158#000004180000003A
(1740508733.341045) can0 188#000000010024
(1740508733.342377) can0 136#000200000000001B
(1740508733.342404) can0 13A#2E08310000000095
(1740508733.342702) can0 13F#0000000000000014
(1740508733.342969) can0 17C#000004363000205D
(1740508733.343803) can0 164#00000017AA00002F
(1740508733.348316) can0 18E#00022D
(1740508733.351014) can0 158#0000041A0000000B
(1740508733.351041) can0 188#000000010033
(1740508733.351322) can0 039#000C
(1740508733.352379) can0 136#000200000000002A
(1740508733.352405) can0 13A#2E0A3100000000A2
(1740508733.352693) can0 13F#0000000000000023
(1740508733.352964) can0 17C#000004363000206C
(1740508733.353067) can0 1DC#0204363C
(1740508733.353728) can0 164#00000017AB00003D
(1740508733.356501) can0 1A4#0000000000000027
(1740508733.356528) can0 1B0#00000000000066
(1740508733.356531) can0 1D0#000000000000000A
(1740508733.358466) can0 18E#00023C
(1740508733.361016) can0 158#0000041C00000018
(1740508733.361042) can0 188#000000010006
(1740508733.362274) can0 136#0002000000000039
(1740508733.362452) can0 13A#2E0C3100000000BF
(1740508733.362695) can0 13F#0000000000280038
(1740508733.362953) can0 17C#000004323000207F
(1740508733.363834) can0 164#00000017AB000000
(1740508733.368320) can0 18E#00020F
(1740508733.368346) can0 039#001B
(1740508733.368760) can0 305#8026
(1740508733.371009) can0 158#0000041E00000025
(1740508733.371036) can0 188#000000010015
(1740508733.372459) can0 136#000200000000000C
(1740508733.372488) can0 13A#2E0E310000000080
(1740508733.372737) can0 13F#0000000000000005
(1740508733.372990) can0 17C#00000432B000204A
(1740508733.373061) can0 1DC#02043203
(1740508733.373249) can0 320#000003
(1740508733.373548) can0 324#69330D3600000004
(1740508733.373648) can0 37C#0000000002
(1740508733.374325) can0 164#00000017AA000010
(1740508733.374569) can0 294#000C40043ECA002C
(1740508733.376053) can0 1A4#0000000000000036
(1740508733.376130) can0 1B0#00000000000075
(1740508733.376427) can0 1D0#000000000000000A
(1740508733.378307) can0 18E#00031D
(1740508733.381007) can0 158#0000041E00000034
(1740508733.381034) can0 188#000000010024
(1740508733.382378) can0 136#000200000000001B
(1740508733.382405) can0 13A#2E1031000000009C
(1740508733.382700) can0 13F#0000000000000014
(1740508733.382944) can0 17C#00000432B0002059
(1740508733.383873) can0 164#00000017AB00002E
(1740508733.386255) can0 039#002A
(1740508733.388273) can0 18E#00022D
(1740508733.390670) can0 158#0000041F00000006
(1740508733.390828) can0 188#000000010033
(1740508733.392392) can0 136#0002000001000029
(1740508733.392420) can0 13A#2E123100000000A9
(1740508733.392717) can0 13F#0000000000280029
(1740508733.392970) can0 17C#0000042EB000206D
(1740508733.393040) can0 1DC#02042E17
(1740508733.393837) can0 164#00000017AB00003D
(1740508733.396049) can0 1A4#0000000000000009
(1740508733.396138) can0 1B0#00000000000048
(1740508733.396423) can0 1D0#000000000000000A
(1740508733.398494) can0 18E#00023C
(1740508733.401087) can0 158#0000041F00000015
(1740508733.401114) can0 188#000000010006
(1740508733.402380) can0 136#0002000002000037
(1740508733.402407) can0 13A#2E133100000000B7
(1740508733.402718) can0 13F#0000000000000032
(1740508733.402952) can0 17C#0000042EB000207C
(1740508733.403757) can0 164#00000017AB000000
(1740508733.404241) can0 039#0039
(1740508733.408258) can0 18E#00030E
(1740508733.411015) can0 158#0000041F00000024
(1740508733.411042) can0 188#000000010015
(1740508733.412235) can0 136#000200000200000A
(1740508733.412463) can0 13A#2E15310000000088
(1740508733.412624) can0 13F#0000000000000005
(1740508733.412932) can0 17C#0000042EB000204F
(1740508733.413035) can0 1DC#02042E26
(1740508733.413806) can0 164#00000017AA000010
(1740508733.414031) can0 294#000C40043ECA003B
(1740508733.414337) can0 309#000000000000001B
(1740508733.415945) can0 1A4#0000000000000018
(1740508733.416141) can0 1B0#00000000000057
(1740508733.416428) can0 1D0#000000000000000A
(1740508733.418220) can0 18E#00021E
(1740508733.420644) can0 158#0000041F00000033
(1740508733.420778) can0 188#000000010024
(1740508733.422196) can0 136#0002000002000019
(1740508733.422254) can0 039#000C
(1740508733.422548) can0 13A#2E16310000000096
(1740508733.422751) can0 13F#00000000001E0015
(1740508733.423049) can0 17C#0000042BB0002051
(1740508733.423724) can0 164#00000017AA00002F
(1740508733.428243) can0 18E#00022D
(1740508733.430668) can0 158#0000041F00000006
(1740508733.430777) can0 188#000000010033
(1740508733.432329) can0 136#0002000003000027
(1740508733.432427) can0 13A#2E183100000000A3
(1740508733.432606) can0 13F#0000000000000023
(1740508733.432926) can0 17C#0000042BB0002060
(1740508733.433035) can0 1DC#02042B38
(1740508733.433811) can0 164#00000017AB00003D
(1740508733.436233) can0 1A4#0000000000000027
(1740508733.436282) can0 1B0#00000000000066
(1740508733.436372) can0 1D0#000000000000000A
(1740508733.438540) can0 18E#00033B
(1740508733.439196) can0 039#001B
(1740508733.440980) can0 158#0000041F00000015
(1740508733.441006) can0 188#000000010006
(1740508733.442305) can0 136#0002000003000036
(1740508733.442350) can0 13A#2E193100000000B1
(1740508733.442629) can0 13F#0000000000000032
(1740508733.442878) can0 17C#0000042BB000207F
(1740508733.443780) can0 164#00000017AB000000
(1740508733.448249) can0 18E#00020F
(1740508733.450650) can0 158#0000041F00000024
(1740508733.450848) can0 188#000000010015
(1740508733.452578) can0 136#0002000003000009
(1740508733.452614) can0 13A#2E1A310000000083
(1740508733.452627) can0 13F#0000000000140000
(1740508733.452939) can0 17C#00000429B0002044
(1740508733.453015) can0 1DC#0204290D
(1740508733.453754) can0 164#00000017AA000010
(1740508733.453994) can0 294#000C40043ECA000E
(1740508733.455944) can0 1A4#0000000000000036
(1740508733.456172) can0 1B0#00000000000075
(1740508733.456439) can0 1D0#000000000000000A
(1740508733.457175) can0 039#002A
(1740508733.458330) can0 18E#00021E
(1740508733.461056) can0 158#0000041E00000034
(1740508733.461084) can0 188#000000010024
(1740508733.462337) can0 136#0002000004000017
(1740508733.462382) can0 13A#2E1C310000000090
(1740508733.462658) can0 13F#0000000000000014
(1740508733.462866) can0 17C#00000429B0002053
(1740508733.463745) can0 164#00000017AA00002F
(1740508733.468597) can0 18E#00032C
(1740508733.470813) can0 158#0000041D00000008
(1740508733.470841) can0 188#000000010033
(1740508733.472444) can0 136#0002000004000026
(1740508733.472471) can0 13A#2E1D3100000000AE
(1740508733.472656) can0 13F#0000000000000023
(1740508733.472916) can0 17C#00000429B0002062
(1740508733.473082) can0 1DC#0204291C
(1740508733.473190) can0 320#000012
(1740508733.473479) can0 324#69330D3600000013
(1740508733.473675) can0 37C#0000000011
(1740508733.473954) can0 164#00000017AB00003D
(1740508733.474207) can0 039#0039
(1740508733.474376) can0 305#8035
(1740508733.475993) can0 1A4#0000000000000009
(1740508733.476208) can0 1B0#00000000000048
(1740508733.476460) can0 1D0#000000000000000A
(1740508733.478382) can0 18E#00013D
(1740508733.480981) can0 158#0000041C00000018
(1740508733.481007) can0 188#000000010006
(1740508733.482209) can0 136#0002000004000035
(1740508733.482425) can0 13A#2E1E3100000000BC
(1740508733.482697) can0 13F#0000000000000032
(1740508733.482953) can0 17C#00000429B0002071
(1740508733.483974) can0 164#00000017AB000000
(1740508733.488311) can0 18E#000100
(1740508733.491006) can0 158#0000041C00000027
(1740508733.491033) can0 188#000000010015
(1740508733.492362) can0 136#0002000004000008
(1740508733.492390) can0 039#000C
(1740508733.492590) can0 13A#2E1F31000000008E
(1740508733.492844) can0 13F#0000000000000005
(1740508733.493091) can0 17C#00000429B0002044
(1740508733.493203) can0 1DC#0204292B
(1740508733.493731) can0 164#00000017AA000010
(1740508733.494021) can0 294#000C40043ECA001D
(1740508733.494316) can0 18DA11F1#0322261100000000
(1740508733.494604) can0 18DAF111#1039622611FFF000
(1740508733.495995) can0 1A4#0000000000000018
(1740508733.496180) can0 1B0#00000000000057
(1740508733.496488) can0 1D0#000000000000000A
(1740508733.498351) can0 18E#00021E
(1740508733.499604) can0 18DA11F1#3000000000000000
(1740508733.499926) can0 18DAF111#21000C00801D7D1F
(1740508733.500215) can0 18DAF111#226B6A821E022700
(1740508733.500477) can0 18DAF111#235B000000000000
(1740508733.500755) can0 158#0000041B00000037
(1740508733.500902) can0 188#000000010024
(1740508733.501240) can0 18DAF111#2400000000000000
(1740508733.501516) can0 18DAF111#2500000000000000
(1740508733.501806) can0 18DAF111#26000000000303FF
(1740508733.502185) can0 136#0002000004000017
(1740508733.502416) can0 13A#2E1F31000000009D
(1740508733.502702) can0 13F#000000000050001F
(1740508733.502906) can0 17C#00000421B000205B
(1740508733.503214) can0 18DAF111#2700000000000000
(1740508733.503466) can0 18DAF111#2800005555555555
(1740508733.503751) can0 164#00000017AA00002F
(1740508733.508560) can0 18E#00012E
