(1740126099.336124) can0 164#000000009600001D
(1740126099.336367) can0 294#000C00043E9D0011
(1740126099.336804) can0 309#000000000000001B
(1740126099.336913) can0 428#000000043E9D1E
(1740126099.337118) can0 42A#0017
(1740126099.337443) can0 405#000000000000001E
(1740126099.345686) can0 164#000000009600002C
(1740126099.355538) can0 164#000000009600003B
(1740126099.365411) can0 164#000000009700000D
(1740126099.367132) can0 18E#00004D
(1740126099.375500) can0 164#000000009600001D
(1740126099.375797) can0 294#020C00043E9D002E
(1740126099.385522) can0 164#000000009600002C
(1740126099.395353) can0 164#000000009600003B
(1740126099.405383) can0 164#000000009600000E
(1740126099.415660) can0 164#000000009600001D
(1740126099.415698) can0 294#020C00043E9D003D
(1740126099.422561) can0 18E#00005C
(1740126099.425416) can0 164#000000009600002C
(1740126099.435327) can0 164#000000009700003A
(1740126099.435564) can0 309#000000000000002A
(1740126099.437969) can0 158#0000000000000019
(1740126099.438215) can0 188#070080010007
(1740126099.438468) can0 136#000200000000001B
(1740126099.438708) can0 13A#5100310000000097
(1740126099.438897) can0 13F#0000000000000014
(1740126099.439210) can0 17C#000000003000205A
(1740126099.445698) can0 164#000000009700000D
(1740126099.448111) can0 158#0000000000000028
(1740126099.448189) can0 188#070080010016
(1740126099.448474) can0 136#000200000000002A
(1740126099.448697) can0 13A#51003100000000A6
(1740126099.448875) can0 13F#0000000000000023
(1740126099.449184) can0 17C#0000000030002069
(1740126099.449312) can0 1DC#0200001B
(1740126099.455582) can0 164#000000009600001D
(1740126099.455755) can0 294#020C00043E9D0000
(1740126099.458036) can0 158#0000000000000037
(1740126099.458129) can0 188#070080010025
(1740126099.458459) can0 136#0002000000000039
(1740126099.458688) can0 13A#51003100000000B5
(1740126099.458873) can0 13F#0000000000000032
(1740126099.459199) can0 17C#0000000030002078
(1740126099.465551) can0 164#000000009700002B
(1740126099.467969) can0 158#000000000000000A
(1740126099.468134) can0 188#070080010034
(1740126099.468408) can0 136#000200000000000C
(1740126099.468678) can0 13A#5100310000000088
(1740126099.468874) can0 13F#0000000000000005
(1740126099.469210) can0 17C#000000003000204B
(1740126099.469386) can0 1DC#0200002A
(1740126099.475646) can0 164#000000009700003A
(1740126099.477339) can0 18E#00006B
(1740126099.477966) can0 158#0000000000000019
(1740126099.478203) can0 188#070080010007
(1740126099.478428) can0 136#000200000000001B
(1740126099.478671) can0 13A#5100310000000097
(1740126099.478909) can0 13F#0000000000000014
(1740126099.479181) can0 17C#000000003000205A
(1740126099.485568) can0 164#000000009600000E
(1740126099.487956) can0 158#0000000000000028
(1740126099.488179) can0 188#070080010016
(1740126099.488425) can0 136#000200000000002A
(1740126099.488670) can0 13A#51003100000000A6
(1740126099.488936) can0 13F#0000000000000023
(1740126099.489181) can0 17C#0000000030002069
(1740126099.489310) can0 1DC#02000039
(1740126099.495481) can0 164#000000009600001D
(1740126099.495778) can0 294#020C00043E9D001F
(1740126099.497934) can0 158#0000000000000037
(1740126099.498188) can0 188#070080010025
(1740126099.498411) can0 136#0002000000000039
(1740126099.498672) can0 13A#51003100000000B5
(1740126099.498871) can0 13F#0000000000000032
(1740126099.499160) can0 17C#0000000030002078
(1740126099.505517) can0 164#000000009600002C
(1740126099.507981) can0 158#000000000000000A
(1740126099.508193) can0 188#070080010034
(1740126099.508404) can0 136#000200000000000C
(1740126099.508661) can0 13A#5100310000000088
(1740126099.508926) can0 13F#0000000000000005
(1740126099.509180) can0 17C#000000003000204B
(1740126099.509313) can0 1DC#0200000C
(1740126099.515495) can0 164#000000009600003B
(1740126099.518012) can0 158#0000000000000019
(1740126099.518196) can0 188#070080010007
(1740126099.518438) can0 136#000200000000001B
(1740126099.518663) can0 13A#5100310000000097
(1740126099.518910) can0 13F#0000000000000014
(1740126099.519180) can0 17C#000000003000205A
(1740126099.525454) can0 164#000000009700000D
(1740126099.527942) can0 158#0000000000000028
(1740126099.528285) can0 188#070080010016
(1740126099.528364) can0 136#000200000000002A
(1740126099.528682) can0 13A#51003100000000A6
(1740126099.528846) can0 13F#0000000000000023
(1740126099.529145) can0 17C#0000000030002069
(1740126099.529337) can0 1DC#0200001B
(1740126099.529408) can0 320#00005E
(1740126099.529713) can0 324#222300000000161E
(1740126099.529860) can0 37C#0000000011
(1740126099.530850) can0 039#0084
(1740126099.536508) can0 164#000000009600001D
(1740126099.536579) can0 294#020C00043E9D002E
(1740126099.536873) can0 309#0000000000000039
(1740126099.537978) can0 158#0000000000000037
(1740126099.538194) can0 188#070080010025
(1740126099.538439) can0 136#0002000000000039
(1740126099.538681) can0 13A#51003100000000B5
(1740126099.538883) can0 13F#0000000000000032
(1740126099.539206) can0 17C#0000000030002078
(1740126099.546667) can0 164#000000009600002C
(1740126099.546704) can0 039#0093
(1740126099.548020) can0 158#000000000000000A
(1740126099.548155) can0 188#070080010034
(1740126099.548457) can0 136#000200000000000C
(1740126099.548703) can0 13A#5100310000000088
(1740126099.548929) can0 13F#0000000000000005
(1740126099.549209) can0 17C#000000003000204B
(1740126099.549286) can0 1DC#0200002A
(1740126099.556223) can0 164#000000009700003A
(1740126099.557983) can0 158#0000000000000019
(1740126099.558197) can0 188#070080010007
(1740126099.558466) can0 136#000200000000001B
(1740126099.558703) can0 13A#5100310000000097
(1740126099.558869) can0 13F#0000000000000014
(1740126099.559183) can0 17C#000000003000205A
(1740126099.566001) can0 039#00A2
(1740126099.566127) can0 164#000000009600000E
(1740126099.568106) can0 158#0000000000000028
(1740126099.568245) can0 188#070080010016
(1740126099.568422) can0 136#000200000000002A
(1740126099.568644) can0 13A#51003100000000A6
(1740126099.568919) can0 13F#0000000000000023
(1740126099.569152) can0 17C#0000000030002069
(1740126099.569273) can0 1DC#02000039
(1740126099.575915) can0 305#8008
(1740126099.576144) can0 164#000000009600001D
(1740126099.576412) can0 294#020C00043E9D003D
(1740126099.577207) can0 18E#00007A
(1740126099.577942) can0 158#0000000000000037
(1740126099.578188) can0 188#070080010025
(1740126099.578442) can0 136#0002000000000039
(1740126099.578669) can0 13A#51003100000000B5
(1740126099.578868) can0 13F#0000000000000032
(1740126099.579165) can0 17C#0000000030002078
(1740126099.581924) can0 18E#00004D
(1740126099.585930) can0 039#00B1
(1740126099.586265) can0 164#000000009700002B
(1740126099.587924) can0 158#000000000000000A
(1740126099.588178) can0 188#070080010034
(1740126099.588418) can0 136#000200000000000C
(1740126099.588671) can0 13A#5100310000000088
(1740126099.588861) can0 13F#0000000000000005
(1740126099.589096) can0 17C#000000003000204B
(1740126099.589285) can0 1DC#0200000C
(1740126099.591945) can0 18E#00005C
(1740126099.596208) can0 164#000000009600003B
(1740126099.597964) can0 158#0000000000000019
(1740126099.598189) can0 188#070080010007
(1740126099.598445) can0 136#000200000000001B
(1740126099.598701) can0 13A#5100310000000097
(1740126099.598921) can0 13F#0000000000000014
(1740126099.599183) can0 17C#000000003000205A
(1740126099.601728) can0 18E#00006B
(1740126099.606256) can0 164#000000009700000D
(1740126099.607356) can0 039#0084
(1740126099.607974) can0 158#0000000000000028
(1740126099.608189) can0 188#070080010016
(1740126099.608421) can0 136#000200000000002A
(1740126099.608653) can0 13A#51003100000000A6
(1740126099.608863) can0 13F#0000000000000023
(1740126099.609154) can0 17C#0000000030002069
(1740126099.609270) can0 1DC#0200001B
(1740126099.611913) can0 18E#00007A
(1740126099.616308) can0 164#000000009600001D
(1740126099.616544) can0 294#020C00043E9D0000
(1740126099.617913) can0 158#0000000000000037
(1740126099.618131) can0 188#070080010025
(1740126099.618354) can0 136#0002000000000039
(1740126099.618642) can0 13A#51003100000000B5
(1740126099.618855) can0 13F#0000000000000032
(1740126099.619150) can0 17C#0000000030002078
(1740126099.621879) can0 18E#00004D
(1740126099.623523) can0 039#0093
(1740126099.626178) can0 164#000000009600002C
(1740126099.627899) can0 158#000000000000000A
(1740126099.628098) can0 188#070080010034
(1740126099.628343) can0 136#000200000000000C
(1740126099.628593) can0 13A#5100310000000088
(1740126099.628847) can0 13F#0000000000000005
(1740126099.629098) can0 17C#000000003000204B
(1740126099.629243) can0 1DC#0200002A
(1740126099.629423) can0 320#00006D
(1740126099.629645) can0 324#222300000000062E
(1740126099.629847) can0 37C#0000000020
(1740126099.631849) can0 18E#00005C
(1740126099.636271) can0 164#000000009600003B
(1740126099.636577) can0 309#000000000000000C
(1740126099.636847) can0 428#000000043E9D2D
(1740126099.637022) can0 42A#0026
(1740126099.637302) can0 405#000000000000002D
(1740126099.637938) can0 158#0000000000000019
(1740126099.638123) can0 188#070080010007
(1740126099.638386) can0 136#000200000000001B
(1740126099.638613) can0 13A#5100310000000097
(1740126099.638863) can0 13F#0000000000000014
(1740126099.639124) can0 17C#000000003000205A
(1740126099.639805) can0 039#00A2
(1740126099.641851) can0 18E#00006B
(1740126099.646316) can0 164#000000009600000E
(1740126099.647922) can0 158#0000000000000028
(1740126099.648151) can0 188#070080010016
(1740126099.648407) can0 136#000200000000002A
(1740126099.648635) can0 13A#51003100000000A6
(1740126099.648843) can0 13F#0000000000000023
(1740126099.649129) can0 17C#0000000030002069
(1740126099.649289) can0 1DC#02000039
(1740126099.651902) can0 18E#00007A
(1740126099.653288) can0 039#00B1
(1740126099.656210) can0 164#000000009600001D
(1740126099.656495) can0 294#020C00043E9D001F
(1740126099.657899) can0 158#0000000000000037
(1740126099.658149) can0 188#070080010025
(1740126099.658393) can0 136#0002000000000039
(1740126099.658645) can0 13A#51003100000000B5
(1740126099.658921) can0 13F#0000000000000032
(1740126099.659129) can0 17C#0000000030002078
(1740126099.661864) can0 18E#00004D
(1740126099.666297) can0 164#000000009600002C
(1740126099.667932) can0 158#000000000000000A
(1740126099.668164) can0 188#070080010034
(1740126099.668358) can0 136#000200000000000C
(1740126099.668595) can0 13A#5100310000000088
(1740126099.668854) can0 13F#0000000000000005
(1740126099.669107) can0 17C#000000003000204B
(1740126099.669273) can0 1DC#0200000C
(1740126099.669787) can0 039#0084
(1740126099.671863) can0 18E#00005C
(1740126099.676333) can0 164#000000009600003B
(1740126099.677922) can0 158#0000000000000019
(1740126099.678149) can0 188#070080010007
(1740126099.678344) can0 136#000200000000001B
(1740126099.678602) can0 13A#5100310000000097
(1740126099.678847) can0 13F#0000000000000014
(1740126099.679101) can0 17C#000000003000205A
(1740126099.681902) can0 18E#00006B
(1740126099.685614) can0 039#0093
(1740126099.685660) can0 305#8017
(1740126099.686576) can0 164#000000009600000E
(1740126099.687966) can0 158#0000000000000028
(1740126099.688148) can0 188#070080010016
(1740126099.688422) can0 136#000200000000002A
(1740126099.688658) can0 13A#51003100000000A6
(1740126099.688826) can0 13F#0000000000000023
(1740126099.689193) can0 17C#0000000030002069
(1740126099.689291) can0 1DC#0200001B
(1740126099.691961) can0 18E#00007A
(1740126099.696438) can0 164#000000009600001D
(1740126099.696604) can0 294#020C00043E9D002E
(1740126099.698117) can0 158#0000000000000037
(1740126099.698189) can0 188#070080010025
(1740126099.698402) can0 136#0002000000000039
(1740126099.698689) can0 13A#51003100000000B5
(1740126099.698857) can0 13F#0000000000000032
(1740126099.699224) can0 17C#0000000030002078
(1740126099.701109) can0 039#00A2
(1740126099.701970) can0 18E#00004D
(1740126099.706385) can0 164#000000009700002B
(1740126099.707973) can0 158#000000000000000A
(1740126099.708158) can0 188#070080010034
(1740126099.708447) can0 136#000200000000000C
(1740126099.708633) can0 13A#5100310000000088
(1740126099.708852) can0 13F#0000000000000005
(1740126099.709179) can0 17C#000000003000204B
(1740126099.709319) can0 1DC#0200002A
(1740126099.711964) can0 18E#00005C
(1740126099.716592) can0 164#000000009600003B
(1740126099.718067) can0 158#0000000000000019
(1740126099.718112) can0 188#070080010007
(1740126099.718413) can0 136#000200000000001B
(1740126099.718658) can0 13A#5100310000000097
(1740126099.718885) can0 13F#0000000000000014
(1740126099.719159) can0 17C#000000003000205A
(1740126099.720303) can0 039#00B1
(1740126099.721947) can0 18E#00006B
(1740126099.726340) can0 164#000000009600000E
(1740126099.727979) can0 158#0000000000000028
(1740126099.728192) can0 188#070080010016
(1740126099.728437) can0 136#000200000000002A
(1740126099.728690) can0 13A#51003100000000A6
(1740126099.728948) can0 13F#0000000000000023
(1740126099.729190) can0 17C#0000000030002069
(1740126099.729371) can0 1DC#02000039
(1740126099.729437) can0 320#00007C
(1740126099.729745) can0 324#222300000000063D
(1740126099.729937) can0 37C#000000003F
(1740126099.730199) can0 40C#0000000004000013
(1740126099.730358) can0 454#00FA11
(1740126099.730536) can0 465#64644242282814
(1740126099.732098) can0 18E#00007A
(1740126099.734103) can0 039#0084
(1740126099.736614) can0 164#000000009600001D
(1740126099.736655) can0 294#020C00043E9D003D
(1740126099.737006) can0 309#000000000000001B
(1740126099.737994) can0 158#0000000000000037
(1740126099.738191) can0 188#070080010025
(1740126099.738440) can0 136#0002000000000039
(1740126099.738680) can0 13A#51003100000000B5
(1740126099.738924) can0 13F#0000000000000032
(1740126099.739157) can0 17C#0000000030002078
(1740126099.741963) can0 18E#00004D
(1740126099.746497) can0 164#000000009600002C
(1740126099.747986) can0 158#000000000000000A
(1740126099.748206) can0 188#070080010034
(1740126099.748440) can0 136#000200000000000C
(1740126099.748667) can0 13A#5100310000000088
(1740126099.748926) can0 13F#0000000000000005
(1740126099.749161) can0 17C#000000003000204B
(1740126099.749338) can0 1DC#0200000C
(1740126099.750364) can0 039#0093
(1740126099.751966) can0 18E#00005C
(1740126099.756386) can0 164#000000009700003A
(1740126099.758024) can0 158#0000000000000019
(1740126099.758206) can0 188#070080010007
(1740126099.758427) can0 136#000200000000001B
(1740126099.758704) can0 13A#5100310000000097
(1740126099.758892) can0 13F#0000000000000014
(1740126099.759165) can0 17C#000000003000205A
(1740126099.762009) can0 18E#00006B
(1740126099.766392) can0 164#000000009600000E
(1740126099.766910) can0 039#00A2
(1740126099.767975) can0 158#0000000000000028
(1740126099.768187) can0 188#070080010016
(1740126099.768442) can0 136#000200000000002A
(1740126099.768669) can0 13A#51003100000000A6
(1740126099.768851) can0 13F#0000000000000023
(1740126099.769175) can0 17C#0000000030002069
(1740126099.769332) can0 1DC#0200001B
(1740126099.771945) can0 18E#00007A
(1740126099.776450) can0 164#000000009700001C
(1740126099.776498) can0 294#020C00043E9D0000
(1740126099.778107) can0 158#0000000000000037
(1740126099.778147) can0 188#070080010025
(1740126099.778430) can0 136#0002000000000039
(1740126099.778701) can0 13A#51003100000000B5
(1740126099.778924) can0 13F#0000000000000032
(1740126099.779181) can0 17C#0000000030002078
(1740126099.781981) can0 18E#00004D
(1740126099.783398) can0 039#00B1
(1740126099.786545) can0 164#000000009700002B
(1740126099.787982) can0 158#000000000000000A
(1740126099.788221) can0 188#070080010034
(1740126099.788378) can0 136#000200000000000C
(1740126099.788649) can0 13A#5100310000000088
(1740126099.788882) can0 13F#0000000000000005
(1740126099.789106) can0 17C#000000003000204B
(1740126099.789373) can0 1DC#0200002A
(1740126099.789409) can0 305#8026
(1740126099.792133) can0 18E#00005C
(1740126099.796615) can0 164#000000009700003A
(1740126099.797975) can0 158#0000000000000019
(1740126099.798190) can0 188#070080010007
(1740126099.798387) can0 136#000200000000001B
(1740126099.798662) can0 13A#5100310000000097
(1740126099.798866) can0 13F#0000000000000014
(1740126099.799224) can0 17C#000000003000205A
(1740126099.799878) can0 039#0084
(1740126099.801888) can0 18E#00006B
(1740126099.806369) can0 164#000000009700000D
(1740126099.808120) can0 158#0000000000000028
(1740126099.808159) can0 188#070080010016
(1740126099.808446) can0 136#000200000000002A
(1740126099.808716) can0 13A#51003100000000A6
(1740126099.808869) can0 13F#0000000000000023
(1740126099.809229) can0 17C#0000000030002069
(1740126099.809270) can0 1DC#02000039
(1740126099.811991) can0 18E#00007A
(1740126099.816294) can0 164#000000009600001D
(1740126099.816334) can0 039#0093
(1740126099.816623) can0 294#020C40043E9D001B
(1740126099.817973) can0 158#0000000000000037
(1740126099.818190) can0 188#070080010025
(1740126099.818429) can0 136#0002000000000039
(1740126099.818659) can0 13A#51003100000000B5
(1740126099.818918) can0 13F#0000000000000032
(1740126099.819114) can0 17C#0000000030002078
(1740126099.821952) can0 18E#00004D
(1740126099.826613) can0 164#000000009700002B
(1740126099.828102) can0 158#000000000000000A
(1740126099.828146) can0 188#070080010034
(1740126099.828435) can0 136#000200000000000C
(1740126099.828704) can0 13A#5100310000000088
(1740126099.828891) can0 13F#0000000000000005
(1740126099.829166) can0 17C#000000003000204B
(1740126099.829331) can0 1DC#0200000C
(1740126099.829510) can0 320#00004F
(1740126099.829771) can0 324#2223000000000600
(1740126099.829906) can0 37C#0000000002
(1740126099.831927) can0 18E#00005C
(1740126099.832927) can0 039#00A2
(1740126099.836466) can0 164#000000009600003B
(1740126099.836712) can0 309#000000000000002A
(1740126099.837978) can0 158#0000000000000019
(1740126099.838187) can0 188#070080010007
(1740126099.838423) can0 136#000200000000001B
(1740126099.838678) can0 13A#5100310000000097
(1740126099.838868) can0 13F#0000000000000014
(1740126099.839155) can0 17C#000000003000205A
(1740126099.842217) can0 18E#00006B
(1740126099.846704) can0 164#000000009600000E
(1740126099.847986) can0 158#0000000000000028
(1740126099.848196) can0 188#070080010016
(1740126099.848433) can0 136#000200000000002A
(1740126099.848685) can0 13A#51003100000000A6
(1740126099.848930) can0 13F#0000000000000023
(1740126099.849165) can0 17C#0000000030002069
(1740126099.849349) can0 1DC#0200001B
(1740126099.849500) can0 039#00B1
(1740126099.851963) can0 18E#00007A
(1740126099.856344) can0 164#000000009600001D
(1740126099.856620) can0 294#020C40043E9D002A
(1740126099.858097) can0 158#0000000000000037
(1740126099.858139) can0 188#070080010025
(1740126099.858430) can0 136#0002000000000039
(1740126099.858667) can0 13A#51003100000000B5
(1740126099.858875) can0 13F#0000000000000032
(1740126099.859170) can0 17C#0000000030002078
(1740126099.861976) can0 18E#00004D
(1740126099.865935) can0 039#0084
(1740126099.866324) can0 164#000000009600002C
(1740126099.867990) can0 158#000000000000000A
(1740126099.868195) can0 188#070080010034
(1740126099.868431) can0 136#000200000000000C
(1740126099.868667) can0 13A#5100310000000088
(1740126099.868929) can0 13F#0000000000000005
(1740126099.869160) can0 17C#000000003000204B
(1740126099.869326) can0 1DC#0200002A
(1740126099.871972) can0 18E#00005C
(1740126099.876321) can0 164#000000009700003A
(1740126099.878185) can0 158#0000000000000019
(1740126099.878207) can0 188#070080010007
(1740126099.878435) can0 136#000200000000001B
(1740126099.878688) can0 13A#5100310000000097
(1740126099.878900) can0 13F#0000000000000014
(1740126099.879165) can0 17C#000000003000205A
(1740126099.882135) can0 18E#00006B
(1740126099.882412) can0 039#0093
(1740126099.886351) can0 164#000000009600000E
(1740126099.887998) can0 158#0000000000000028
(1740126099.888191) can0 188#070080010016
(1740126099.888431) can0 136#000200000000002A
(1740126099.888698) can0 13A#51003100000000A6
(1740126099.888928) can0 13F#0000000000000023
(1740126099.889187) can0 17C#0000000030002069
(1740126099.889344) can0 1DC#02000039
(1740126099.892100) can0 18E#00007A
(1740126099.893413) can0 305#8035
(1740126099.896330) can0 164#000000009600001D
(1740126099.896618) can0 294#020C40043E9D0039
(1740126099.897970) can0 158#0000000000000037
(1740126099.898189) can0 188#070080010025
(1740126099.898444) can0 136#0002000000000039
(1740126099.898669) can0 13A#51003100000000B5
(1740126099.898918) can0 13F#0000000000000032
(1740126099.899066) can0 039#00A2
(1740126099.899303) can0 17C#0000000030002078
(1740126099.902116) can0 18E#00004D
(1740126099.906558) can0 164#000000009600002C
(1740126099.908117) can0 158#000000000000000A
(1740126099.908156) can0 188#070080010034
(1740126099.908496) can0 136#000200000000000C
(1740126099.908698) can0 13A#5100310000000088
(1740126099.908885) can0 13F#0000000000000005
(1740126099.909164) can0 17C#000000003000204B
(1740126099.909355) can0 1DC#0200000C
(1740126099.911977) can0 18E#00005C
(1740126099.915601) can0 039#00B1
(1740126099.916281) can0 164#000000009700003A
(1740126099.917951) can0 158#0000000000000019
(1740126099.918180) can0 188#070080010007
(1740126099.918395) can0 136#000200000000001B
(1740126099.918666) can0 13A#5100310000000097
(1740126099.918884) can0 13F#0000000000000014
(1740126099.919135) can0 17C#000000003000205A
(1740126099.921969) can0 18E#00006B
(1740126099.926356) can0 164#000000009600000E
(1740126099.927974) can0 158#0000000000000028
(1740126099.928177) can0 188#070080010016
(1740126099.928441) can0 136#000200000000002A
(1740126099.928648) can0 13A#51003100000000A6
(1740126099.928898) can0 13F#0000000000000023
(1740126099.929111) can0 17C#0000000030002069
(1740126099.929318) can0 1DC#0200001B
(1740126099.929488) can0 320#00005E
(1740126099.929738) can0 324#222300000000061F
(1740126099.929862) can0 37C#0000000011
(1740126099.932120) can0 039#0084
(1740126099.932141) can0 18E#00007A
(1740126099.934130) can0 1A4#000000C00000003A
(1740126099.934407) can0 1B0#00000000000039
(1740126099.934636) can0 1D0#000000000000000A
(1740126099.936609) can0 164#000000009600001D
(1740126099.936658) can0 294#020C40043E9D000C
(1740126099.936981) can0 309#0000000000000039
(1740126099.937241) can0 428#000000043E9D3C
(1740126099.937425) can0 42A#0035
(1740126099.937713) can0 405#0000040000000236
(1740126099.938006) can0 158#0000000000000037
(1740126099.938188) can0 188#070080010025
(1740126099.938466) can0 136#0002000000000039
(1740126099.938684) can0 13A#51003100000000B5
(1740126099.938931) can0 13F#0000000000000032
(1740126099.939164) can0 17C#0000000030002078
(1740126099.942000) can0 18E#00004D
(1740126099.946424) can0 164#000000009700002B
(1740126099.947967) can0 158#000000000000000A
(1740126099.948180) can0 188#070080010034
(1740126099.948413) can0 136#000200000000000C
(1740126099.948561) can0 039#0093
(1740126099.948796) can0 13A#5100310000000088
(1740126099.949026) can0 13F#0000000000000005
(1740126099.949290) can0 17C#000000003000204B
(1740126099.949448) can0 1DC#0200002A
(1740126099.951938) can0 18E#00005C
(1740126099.954139) can0 1A4#000000C00000000D
(1740126099.954357) can0 1B0#0000000000000C
(1740126099.954614) can0 1D0#000000000000000A
(1740126099.956320) can0 164#000000009700003A
(1740126099.957958) can0 158#0000000000000019
(1740126099.958139) can0 188#070080010007
(1740126099.958391) can0 136#000200000000001B
(1740126099.958648) can0 13A#5100310000000097
(1740126099.958869) can0 13F#0000000000000014
(1740126099.959143) can0 17C#000000003000205A
(1740126099.961901) can0 18E#00006B
(1740126099.964906) can0 039#00A2
(1740126099.966344) can0 164#000000009600000E
(1740126099.967916) can0 158#0000000000000028
(1740126099.968095) can0 188#070080010016
(1740126099.968395) can0 136#000200000000002A
(1740126099.968657) can0 13A#51003100000000A6
(1740126099.968855) can0 13F#0000000000000023
(1740126099.969125) can0 17C#0000000030002069
(1740126099.969294) can0 1DC#02000039
(1740126099.971888) can0 18E#00007A
(1740126099.974094) can0 1A4#000000C00000001C
(1740126099.974276) can0 1B0#0000000000001B
(1740126099.974595) can0 1D0#000000000000000A
(1740126099.976334) can0 164#000000009600001D
(1740126099.976603) can0 294#020C40043E9D001B
(1740126099.977905) can0 158#0000000000000037
(1740126099.978092) can0 188#070080010025
(1740126099.978347) can0 136#0002000000000039
(1740126099.978604) can0 13A#51003100000000B5
(1740126099.978861) can0 13F#0000000000000032
(1740126099.979100) can0 17C#0000000030002078
(1740126099.981372) can0 039#00B1
(1740126099.981905) can0 18E#00004D
(1740126099.986473) can0 164#000000009700002B
(1740126099.987985) can0 158#000000000000000A
(1740126099.988167) can0 188#070080010034
(1740126099.988379) can0 136#000200000000000C
(1740126099.988601) can0 13A#5100310000000088
(1740126099.988836) can0 13F#0000000000000005
(1740126099.989120) can0 17C#000000003000204B
(1740126099.989319) can0 1DC#0200000C
(1740126099.991897) can0 18E#00005C
(1740126099.994118) can0 1A4#000000C00000002B
(1740126099.994295) can0 1B0#0000000000002A
(1740126099.994591) can0 1D0#000000000000000A
(1740126099.996372) can0 164#000000009700003A
(1740126099.998063) can0 158#0000000000000019
(1740126099.998095) can0 039#0084
(1740126099.998353) can0 136#000200000000001B
(1740126099.998578) can0 13A#5100310000000097
(1740126099.998767) can0 13F#0000000000000014
(1740126099.999069) can0 17C#000000003000205A
(1740126099.999258) can0 188#070080010007
(1740126099.999331) can0 305#8008
(1740126100.001905) can0 18E#00006B
(1740126100.006647) can0 164#000000009600000E
(1740126100.007944) can0 158#0000000000000028
(1740126100.008166) can0 188#070080010016
(1740126100.008407) can0 136#000200000000002A
(1740126100.008633) can0 13A#51003100000000A6
(1740126100.008822) can0 13F#0000000000000023
(1740126100.009126) can0 17C#0000000030002069
(1740126100.009258) can0 1DC#0200001B
(1740126100.012076) can0 18E#00007A
(1740126100.014084) can0 1A4#000000C00000003A
(1740126100.014345) can0 1B0#00000000000039
(1740126100.014396) can0 039#0093
(1740126100.014697) can0 1D0#000000000000000A
(1740126100.016299) can0 164#000000009600001D
(1740126100.016544) can0 294#020C40043E9D002A
(1740126100.018063) can0 158#0000000000000037
(1740126100.018225) can0 188#070080010025
(1740126100.018396) can0 136#0002000000000039
(1740126100.018653) can0 13A#51003100000000B5
(1740126100.018852) can0 13F#0000000000000032
(1740126100.019161) can0 17C#0000000030002078
(1740126100.021933) can0 18E#00004D
(1740126100.026517) can0 164#000000009600002C
(1740126100.028115) can0 158#000000000000000A
(1740126100.028155) can0 188#070080010034
(1740126100.028423) can0 136#000200000000000C
(1740126100.028665) can0 13A#5100310000000088
(1740126100.028852) can0 13F#0000000000000005
(1740126100.029167) can0 17C#000000003000204B
(1740126100.029254) can0 1DC#0200002A
(1740126100.029417) can0 320#00006D
(1740126100.029719) can0 324#222300000000062E
(1740126100.029882) can0 37C#0000000020
(1740126100.030132) can0 40C#014A484D46443124
(1740126100.030309) can0 454#00FA20
(1740126100.030482) can0 465#64644242282823
(1740126100.030903) can0 039#00A2
(1740126100.031966) can0 18E#00005C
(1740126100.034219) can0 1A4#000000C00000000D
(1740126100.034472) can0 1B0#0000000000000C
(1740126100.034719) can0 1D0#000000000000000A
(1740126100.036480) can0 164#000000009700003A
(1740126100.036803) can0 309#000000000000000C
(1740126100.037943) can0 158#0000000000000019
(1740126100.038190) can0 188#070080010007
(1740126100.038447) can0 136#000200000000001B
(1740126100.038686) can0 13A#5100310000000097
(1740126100.038879) can0 13F#0000000000000014
(1740126100.039156) can0 17C#000000003000205A
(1740126100.042104) can0 18E#00006B
(1740126100.046406) can0 164#000000009600000E
(1740126100.047482) can0 039#00B1
(1740126100.048006) can0 158#0000000000000028
(1740126100.048109) can0 188#070080010016
(1740126100.048423) can0 136#000200000000002A
(1740126100.048671) can0 13A#51003100000000A6
(1740126100.048842) can0 13F#0000000000000023
(1740126100.049155) can0 17C#0000000030002069
(1740126100.049248) can0 1DC#02000039
(1740126100.051949) can0 18E#00007A
(1740126100.054205) can0 1A4#000000C00000001C
(1740126100.054432) can0 1B0#0000000000001B
(1740126100.054696) can0 1D0#000000000000000A
(1740126100.056702) can0 164#000000009600001D
(1740126100.056738) can0 294#020C40043E9D0039
(1740126100.057975) can0 158#0000000000000037
(1740126100.058175) can0 188#070080010025
(1740126100.058413) can0 136#0002000000000039
(1740126100.058679) can0 13A#51003100000000B5
(1740126100.058879) can0 13F#0000000000000032
(1740126100.059155) can0 17C#0000000030002078
(1740126100.062067) can0 18E#00004D
(1740126100.064074) can0 039#0084
(1740126100.066405) can0 164#000000009700002B
(1740126100.067999) can0 158#000000000000000A
(1740126100.068110) can0 188#070080010034
(1740126100.068384) can0 136#000200000000000C
(1740126100.068600) can0 13A#5100310000000088
(1740126100.068846) can0 13F#0000000000000005
(1740126100.069113) can0 17C#000000003000204B
(1740126100.069325) can0 1DC#0200000C
(1740126100.071922) can0 18E#00005C
(1740126100.074214) can0 1A4#000000C00000002B
(1740126100.074429) can0 1B0#0000000000002A
(1740126100.074695) can0 1D0#000000000000000A
(1740126100.076333) can0 164#000000009600003B
(1740126100.077984) can0 158#0000000000000019
(1740126100.078123) can0 188#070080010007
(1740126100.078375) can0 136#000200000000001B
(1740126100.078649) can0 13A#5100310000000097
(1740126100.078901) can0 13F#0000000000000014
(1740126100.079167) can0 17C#000000003000205A
(1740126100.080671) can0 039#0093
(1740126100.081913) can0 18E#00006B
(1740126100.086384) can0 164#000000009600000E
(1740126100.088109) can0 158#0000000000000028
(1740126100.088183) can0 188#070080010016
(1740126100.088429) can0 136#000200000000002A
(1740126100.088671) can0 13A#51003100000000A6
(1740126100.088841) can0 13F#0000000000000023
(1740126100.089158) can0 17C#0000000030002069
(1740126100.089246) can0 1DC#0200001B
(1740126100.092257) can0 18E#00007A
(1740126100.094237) can0 1A4#000000C00000003A
(1740126100.094357) can0 1B0#00000000000039
(1740126100.094687) can0 1D0#000000000000000A
(1740126100.096300) can0 164#000000009600001D
(1740126100.096569) can0 294#020C40043E9D000C
(1740126100.096892) can0 039#00A2
(1740126100.097961) can0 158#0000000000000037
(1740126100.098194) can0 188#070080010025
(1740126100.098445) can0 136#0002000000000039
(1740126100.098589) can0 13A#51003100000000B5
(1740126100.098875) can0 13F#0000000000000032
(1740126100.099158) can0 17C#0000000030002078
(1740126100.101982) can0 18E#00004D
(1740126100.102461) can0 305#8017
(1740126100.106425) can0 164#000000009700002B
(1740126100.108136) can0 158#000000000000000A
(1740126100.108170) can0 188#070080010034
(1740126100.108431) can0 136#000200000000000C
(1740126100.108698) can0 13A#5100310000000088
(1740126100.108842) can0 13F#0000000000000005
(1740126100.109157) can0 17C#000000003000204B
(1740126100.109250) can0 1DC#0200002A
(1740126100.111979) can0 18E#00005C
(1740126100.113437) can0 039#00B1
(1740126100.114198) can0 1A4#000000C00000000D
(1740126100.114427) can0 1B0#0000000000000C
(1740126100.114720) can0 1D0#000000000000000A
(1740126100.116342) can0 164#000000009700003A
(1740126100.117953) can0 158#0000000000000019
(1740126100.118173) can0 188#070080010007
(1740126100.118418) can0 136#000200000000001B
(1740126100.118673) can0 13A#5100310000000097
(1740126100.118868) can0 13F#0000000000000014
(1740126100.119152) can0 17C#000000003000205A
(1740126100.122075) can0 18E#00006B
(1740126100.126525) can0 164#000000009600000E
(1740126100.128093) can0 158#0000000000000028
(1740126100.128253) can0 188#070080010016
(1740126100.128420) can0 136#000200000000002A
(1740126100.128670) can0 13A#51003100000000A6
(1740126100.128906) can0 13F#0000000000000023
(1740126100.129165) can0 17C#0000000030002069
(1740126100.129328) can0 1DC#02000039
(1740126100.129409) can0 320#00007C
(1740126100.129737) can0 324#222300000000063D
(1740126100.129919) can0 37C#000000003F
(1740126100.130076) can0 039#0084
(1740126100.131918) can0 18E#00007A
(1740126100.134235) can0 1A4#000000C00000001C
(1740126100.134465) can0 1B0#0000000000001B
(1740126100.134684) can0 1D0#000000000000000A
(1740126100.136437) can0 164#000000009600001D
(1740126100.136674) can0 294#020C40043E9D001B
(1740126100.136931) can0 309#000000000000001B
(1740126100.137968) can0 158#0000000000000037
(1740126100.138195) can0 188#070080010025
(1740126100.138429) can0 136#0002000000000039
(1740126100.138667) can0 13A#51003100000000B5
(1740126100.138911) can0 13F#0000000000000032
(1740126100.139161) can0 17C#0000000030002078
(1740126100.142118) can0 18E#00004D
(1740126100.146384) can0 164#000000009600002C
(1740126100.146423) can0 039#0093
(1740126100.147987) can0 158#000000000000000A
(1740126100.148186) can0 188#070080010034
(1740126100.148416) can0 136#000200000000000C
(1740126100.148656) can0 13A#5100310000000088
(1740126100.148923) can0 13F#0000000000000005
(1740126100.149165) can0 17C#000000003000204B
(1740126100.149331) can0 1DC#0200000C
(1740126100.152098) can0 18E#00005C
(1740126100.154110) can0 1A4#000000C00000002B
(1740126100.154366) can0 1B0#0000000000002A
(1740126100.154627) can0 1D0#000000000000000A
(1740126100.156361) can0 164#000000009700003A
(1740126100.158109) can0 158#0000000000000019
(1740126100.158149) can0 188#070080010007
(1740126100.158424) can0 136#000200000000001B
(1740126100.158651) can0 13A#5100310000000097
(1740126100.158918) can0 13F#0000000000000014
(1740126100.159165) can0 17C#000000003000205A
(1740126100.162070) can0 18E#00006B
(1740126100.162912) can0 039#00A2
(1740126100.166328) can0 164#000000009600000E
(1740126100.167968) can0 158#0000000000000028
(1740126100.168148) can0 188#070080010016
(1740126100.168421) can0 136#000200000000002A
(1740126100.168662) can0 13A#51003100000000A6
(1740126100.168838) can0 13F#0000000000000023
(1740126100.169149) can0 17C#0000000030002069
(1740126100.169316) can0 1DC#0200001B
(1740126100.171965) can0 18E#00007A
(1740126100.174256) can0 1A4#000000C00000003A
(1740126100.174467) can0 1B0#00000000000039
(1740126100.174698) can0 1D0#000000000000000A
(1740126100.176307) can0 164#000000009600001D
(1740126100.176589) can0 294#020C40043E9D002A
(1740126100.177942) can0 158#0000000000000037
(1740126100.178170) can0 188#070080010025
(1740126100.178428) can0 136#0002000000000039
(1740126100.178641) can0 13A#51003100000000B5
(1740126100.178878) can0 13F#0000000000000032
(1740126100.179157) can0 17C#0000000030002078
(1740126100.179390) can0 039#00B1
(1740126100.181886) can0 18E#00004D
(1740126100.186348) can0 164#000000009600002C
(1740126100.187933) can0 158#000000000000000A
(1740126100.188143) can0 188#070080010034
(1740126100.188377) can0 136#000200000000000C
(1740126100.188617) can0 13A#5100310000000088
(1740126100.188854) can0 13F#0000000000000005
(1740126100.189112) can0 17C#000000003000204B
(1740126100.189283) can0 1DC#0200002A
(1740126100.191882) can0 18E#00005C
(1740126100.194354) can0 1A4#000000C00000000D
(1740126100.194392) can0 1B0#0000000000000C
(1740126100.194673) can0 1D0#000000000000000A
(1740126100.195884) can0 039#0084
(1740126100.196211) can0 164#000000009700003A
(1740126100.197943) can0 158#0000000000000019
(1740126100.198133) can0 188#070080010007
(1740126100.198336) can0 136#000200000000001B
(1740126100.198590) can0 13A#5100310000000097
(1740126100.198810) can0 13F#0000000000000014
(1740126100.199061) can0 17C#000000003000205A
(1740126100.201920) can0 18E#00006B
(1740126100.206620) can0 164#000000009600000E
(1740126100.206868) can0 305#8026
(1740126100.207897) can0 158#0000000000000028
(1740126100.208093) can0 188#070080010016
(1740126100.208360) can0 136#000200000000002A
(1740126100.208580) can0 13A#51003100000000A6
(1740126100.208818) can0 13F#0000000000000023
(1740126100.209082) can0 17C#0000000030002069
(1740126100.209250) can0 1DC#02000039
(1740126100.211876) can0 18E#00007A
(1740126100.212323) can0 039#0093
(1740126100.214075) can0 1A4#000000C00000001C
(1740126100.214352) can0 1B0#0000000000001B
(1740126100.214607) can0 1D0#000000000000000A
(1740126100.216386) can0 164#000000009600001D
(1740126100.216504) can0 294#020C40043E9D0039
(1740126100.217903) can0 158#0000000000000037
(1740126100.218092) can0 188#070080010025
(1740126100.218344) can0 136#0002000000000039
(1740126100.218570) can0 13A#51003100000000B5
(1740126100.218855) can0 13F#0000000000000032
(1740126100.219069) can0 17C#0000000030002078
(1740126100.221954) can0 18E#00004D
(1740126100.226317) can0 164#000000009600002C
(1740126100.227894) can0 158#000000000000000A
(1740126100.228093) can0 188#070080010034
(1740126100.228379) can0 136#000200000000000C
(1740126100.228566) can0 13A#5100310000000088
(1740126100.228813) can0 13F#0000000000000005
(1740126100.228961) can0 039#00A2
(1740126100.229192) can0 17C#000000003000204B
(1740126100.229369) can0 1DC#0200000C
(1740126100.229524) can0 320#00004F
(1740126100.229760) can0 324#2223000000000600
(1740126100.230011) can0 37C#0000000002
(1740126100.231873) can0 18E#00005C
(1740126100.234235) can0 1A4#000000C00000002B
(1740126100.234481) can0 1B0#0000000000002A
(1740126100.234716) can0 1D0#000000000000000A
(1740126100.236361) can0 164#000000009600003B
(1740126100.236626) can0 309#000000000000002A
(1740126100.236903) can0 428#000000043E9D0F
(1740126100.237117) can0 42A#0008
(1740126100.237358) can0 405#000000000000020D
(1740126100.237932) can0 158#0000000000000019
(1740126100.238099) can0 188#070080010007
(1740126100.238396) can0 136#000200000000001B
(1740126100.238589) can0 13A#5100310000000097
(1740126100.238831) can0 13F#0000000000000014
(1740126100.239094) can0 17C#000000003000205A
(1740126100.241867) can0 18E#00006B
(1740126100.245373) can0 039#00B1
(1740126100.246452) can0 164#000000009700000D
(1740126100.247957) can0 158#0000000000000028
(1740126100.248074) can0 188#070080010016
(1740126100.248332) can0 136#000200000000002A
(1740126100.248553) can0 13A#51003100000000A6
(1740126100.248804) can0 13F#0000000000000023
(1740126100.249059) can0 17C#0000000030002069
(1740126100.249233) can0 1DC#0200001B
(1740126100.251917) can0 18E#00007A
(1740126100.254293) can0 1A4#000000C00000003A
(1740126100.254519) can0 1B0#00000000000039
(1740126100.254788) can0 1D0#000000000000000A
(1740126100.256324) can0 164#000000009600001D
(1740126100.256615) can0 294#020C40043E9D000C
(1740126100.258120) can0 158#0000000000000037
(1740126100.258161) can0 188#070080010025
(1740126100.258403) can0 136#0002000000000039
(1740126100.258674) can0 13A#51003100000000B5
(1740126100.258915) can0 13F#0000000000000032
(1740126100.259155) can0 17C#0000000030002078
(1740126100.261959) can0 18E#00004D
(1740126100.261999) can0 039#0084
(1740126100.266623) can0 164#000000009700002B
(1740126100.267981) can0 158#000000000000000A
(1740126100.268175) can0 188#070080010034
(1740126100.268420) can0 136#000200000000000C
(1740126100.268658) can0 13A#5100310000000088
(1740126100.268854) can0 13F#0000000000000005
(1740126100.269170) can0 17C#000000003000204B
(1740126100.269351) can0 1DC#0200002A
(1740126100.271922) can0 18E#00005C
(1740126100.274269) can0 1A4#000000C00000000D
(1740126100.274457) can0 1B0#00000000000048
(1740126100.274724) can0 1D0#000000000000000A
(1740126100.276330) can0 164#000000009600003B
(1740126100.278117) can0 158#0000000000000019
(1740126100.278160) can0 188#070080010007
(1740126100.278437) can0 136#000200000000001B
(1740126100.278472) can0 039#0093
(1740126100.278804) can0 13A#5100310000000097
(1740126100.279034) can0 13F#0000000000000014
(1740126100.279298) can0 17C#000000003000205A
(1740126100.281904) can0 18E#00006B
(1740126100.286390) can0 164#000000009600000E
(1740126100.288025) can0 158#0000000000000028
(1740126100.288213) can0 188#070080010016
(1740126100.288409) can0 136#000200000000002A
(1740126100.288631) can0 13A#51003100000000A6
(1740126100.288815) can0 13F#0000000000000023
(1740126100.289165) can0 17C#0000000030002069
(1740126100.289320) can0 1DC#02000039
(1740126100.291982) can0 18E#00007A
(1740126100.294334) can0 1A4#000000C00000001C
(1740126100.294551) can0 1B0#00000000000057
(1740126100.294799) can0 1D0#000000000000000A
(1740126100.294894) can0 039#00A2
(1740126100.296355) can0 164#000000009600001D
(1740126100.296631) can0 294#020C40043E9D001B
(1740126100.297970) can0 158#0000000000000037
(1740126100.298159) can0 188#070080010025
(1740126100.298419) can0 136#0002000000000039
(1740126100.298670) can0 13A#51003100000000B5
(1740126100.298863) can0 13F#0000000000000032
(1740126100.299148) can0 17C#0000000030002078
(1740126100.301930) can0 18E#00004D
(1740126100.306375) can0 164#000000009700002B
(1740126100.308265) can0 158#000000000000000A
(1740126100.308290) can0 188#070080010034
(1740126100.308355) can0 136#000200000000000C
(1740126100.308645) can0 13A#5100310000000088
(1740126100.308913) can0 13F#0000000000000005
(1740126100.309128) can0 17C#000000003000204B
(1740126100.309330) can0 1DC#0200000C
(1740126100.311496) can0 039#00B1
(1740126100.311540) can0 305#8035
(1740126100.311932) can0 18E#00005C
(1740126100.314255) can0 1A4#000000C00000002B
(1740126100.314438) can0 1B0#00000000000066
(1740126100.314704) can0 1D0#000000000000000A
(1740126100.316412) can0 164#000000009600003B
(1740126100.317984) can0 158#0000000000000019
(1740126100.318184) can0 188#070080010007
(1740126100.318425) can0 136#000200000000001B
(1740126100.318648) can0 13A#5100310000000097
(1740126100.318891) can0 13F#0000000000000014
(1740126100.319164) can0 17C#000000003000205A
(1740126100.321898) can0 18E#00006B
(1740126100.326301) can0 164#000000009600000E
(1740126100.327995) can0 158#0000000000000028
(1740126100.328029) can0 039#0084
(1740126100.328349) can0 136#000200000000002A
(1740126100.328602) can0 13A#51003100000000A6
(1740126100.328829) can0 13F#0000000000000023
(1740126100.329107) can0 17C#0000000030002069
(1740126100.329284) can0 188#070080010016
(1740126100.329475) can0 1DC#0200001B
(1740126100.329563) can0 320#00005E
(1740126100.329784) can0 324#222300000000061F
(1740126100.329968) can0 37C#0000000011
(1740126100.330260) can0 40C#023632303653323C
(1740126100.330370) can0 454#00FA3F
(1740126100.330649) can0 465#64644242282832
(1740126100.331959) can0 18E#00007A
(1740126100.334346) can0 1A4#000000C00000003A
(1740126100.334587) can0 1B0#00000000000075
(1740126100.334836) can0 1D0#000000000000000A
(1740126100.336468) can0 164#000000009600001D
(1740126100.336786) can0 294#020C40043E9D002A
(1740126100.337074) can0 309#0000000000000039
(1740126100.337936) can0 158#0000000000000037
(1740126100.338168) can0 188#070080010025
(1740126100.338392) can0 136#0002000000000039
(1740126100.338587) can0 13A#51003100000000B5
(1740126100.338866) can0 13F#0000000000000032
(1740126100.339101) can0 17C#0000000030002078
(1740126100.341961) can0 18E#00004D
(1740126100.344549) can0 039#0093
(1740126100.346459) can0 164#000000009700002B
(1740126100.348127) can0 158#000000000000000A
(1740126100.348151) can0 188#070080010034
(1740126100.348404) can0 136#000200000000000C
(1740126100.348637) can0 13A#5100310000000088
(1740126100.348846) can0 13F#0000000000000005
(1740126100.349081) can0 17C#000000003000204B
(1740126100.349298) can0 1DC#0200002A
(1740126100.351910) can0 18E#00005C
(1740126100.354309) can0 1A4#000000C00000000D
(1740126100.354564) can0 1B0#00000000000048
(1740126100.354752) can0 1D0#000000000000000A
(1740126100.356519) can0 164#000000009600003B
(1740126100.357978) can0 158#0000000000000019
(1740126100.358147) can0 188#070080010007
(1740126100.358374) can0 136#000200000000001B
(1740126100.358616) can0 13A#5100310000000097
(1740126100.358848) can0 13F#0000000000000014
(1740126100.359156) can0 17C#000000003000205A
(1740126100.361035) can0 039#00A2
(1740126100.361923) can0 18E#00006B
(1740126100.366416) can0 164#000000009700000D
(1740126100.367970) can0 158#0000000000000028
(1740126100.368123) can0 188#070080010016
(1740126100.368356) can0 136#000200000000002A
(1740126100.368592) can0 13A#51003100000000A6
(1740126100.368836) can0 13F#0000000000000023
(1740126100.369146) can0 17C#0000000030002069
(1740126100.369255) can0 1DC#02000039
(1740126100.371988) can0 18E#00007A
(1740126100.374248) can0 1A4#000000C00000001C
(1740126100.374472) can0 1B0#00000000000057
(1740126100.374736) can0 1D0#000000000000000A
(1740126100.376253) can0 164#000000009600001D
(1740126100.376523) can0 294#020C40043E9D0039
(1740126100.377663) can0 039#00B1
(1740126100.377977) can0 158#0000000000000037
(1740126100.378124) can0 188#070080010025
(1740126100.378426) can0 136#0002000000000039
(1740126100.378648) can0 13A#51003100000000B5
(1740126100.378847) can0 13F#0000000000000032
(1740126100.379115) can0 17C#0000000030002078
(1740126100.381955) can0 18E#00004D
(1740126100.386340) can0 164#000000009600002C
(1740126100.387982) can0 158#000000000000000A
(1740126100.388137) can0 188#070080010034
(1740126100.388411) can0 136#000200000000000C
(1740126100.388628) can0 13A#5100310000000088
(1740126100.388840) can0 13F#0000000000000005
(1740126100.389152) can0 17C#000000003000204B
(1740126100.389255) can0 1DC#0200000C
(1740126100.391935) can0 18E#00005C
(1740126100.393999) can0 039#0084
(1740126100.394344) can0 1A4#000000C00000002B
(1740126100.394584) can0 1B0#00000000000066
(1740126100.394784) can0 1D0#000000000000000A
(1740126100.396217) can0 164#000000009600003B
(1740126100.397936) can0 158#0000000000000019
(1740126100.398150) can0 188#070080010007
(1740126100.398421) can0 136#000200000000001B
(1740126100.398657) can0 13A#5100310000000097
(1740126100.398845) can0 13F#0000000000000014
(1740126100.399134) can0 17C#000000003000205A
(1740126100.401932) can0 18E#00006B
(1740126100.406372) can0 164#000000009600000E
(1740126100.408119) can0 158#0000000000000028
(1740126100.408144) can0 188#070080010016
(1740126100.408369) can0 136#000200000000002A
(1740126100.408596) can0 13A#51003100000000A6
(1740126100.408865) can0 13F#0000000000000023
(1740126100.409100) can0 17C#0000000030002069
(1740126100.409334) can0 1DC#0200001B
(1740126100.410451) can0 039#0093
(1740126100.412209) can0 18E#00007A
(1740126100.414383) can0 1A4#000000C00000003A
(1740126100.414515) can0 1B0#00000000000075
(1740126100.414855) can0 1D0#000000000000000A
(1740126100.415971) can0 305#8008
(1740126100.416360) can0 164#000000009700001C
(1740126100.416618) can0 294#020C40043E9D000C
(1740126100.417937) can0 158#0000000000000037
(1740126100.418163) can0 188#070080010025
(1740126100.418389) can0 136#0002000000000039
(1740126100.418605) can0 13A#51003100000000B5
(1740126100.418840) can0 13F#0000000000000032
(1740126100.419089) can0 17C#0000000030002078
(1740126100.421929) can0 18E#00004D
(1740126100.426384) can0 164#000000009700002B
(1740126100.426950) can0 039#00A2
(1740126100.427960) can0 158#000000000000000A
(1740126100.428123) can0 188#070080010034
(1740126100.428373) can0 136#000200000000000C
(1740126100.428602) can0 13A#5100310000000088
(1740126100.428843) can0 13F#0000000000000005
(1740126100.429085) can0 17C#000000003000204B
(1740126100.429307) can0 1DC#0200002A
(1740126100.429413) can0 320#00006D
(1740126100.429708) can0 324#222300000000062E
(1740126100.429839) can0 37C#0000000020
(1740126100.431942) can0 18E#00005C
(1740126100.434315) can0 1A4#000000C00000000D
(1740126100.434441) can0 1B0#00000000000048
(1740126100.434794) can0 1D0#000000000000000A
(1740126100.436424) can0 164#000000009600003B
(1740126100.436639) can0 309#000000000000000C
(1740126100.438128) can0 158#0000000000000019
(1740126100.438154) can0 188#070080010007
(1740126100.438341) can0 136#000200000000001B
(1740126100.438608) can0 13A#5100310000000097
(1740126100.438843) can0 13F#0000000000000014
(1740126100.439115) can0 17C#000000003000205A
(1740126100.441939) can0 18E#00006B
(1740126100.443616) can0 039#00B1
(1740126100.446529) can0 164#000000009600000E
(1740126100.448119) can0 158#0000000000000028
(1740126100.448144) can0 188#070080010016
(1740126100.448370) can0 136#000200000000002A
(1740126100.448637) can0 13A#51003100000000A6
(1740126100.448855) can0 13F#0000000000000023
(1740126100.449129) can0 17C#0000000030002069
(1740126100.449307) can0 1DC#02000039
(1740126100.451953) can0 18E#00007A
(1740126100.454249) can0 1A4#000000C00000001C
(1740126100.454492) can0 1B0#00000000000057
(1740126100.454726) can0 1D0#000000000000000A
(1740126100.456343) can0 164#000000009600001D
(1740126100.456580) can0 294#020C40043E9D001B
(1740126100.457984) can0 158#0000000000000037
(1740126100.458105) can0 188#070080010025
(1740126100.458395) can0 136#0002000000000039
(1740126100.458628) can0 13A#51003100000000B5
(1740126100.458846) can0 13F#0000000000000032
(1740126100.459155) can0 17C#0000000030002078
(1740126100.459959) can0 039#0084
(1740126100.461928) can0 18E#00004D
(1740126100.466339) can0 164#000000009700002B
(1740126100.467946) can0 158#000000000000000A
(1740126100.468179) can0 188#070080010034
(1740126100.468406) can0 136#000200000000000C
(1740126100.468605) can0 13A#5100310000000088
(1740126100.468819) can0 13F#0000000000000005
(1740126100.469082) can0 17C#000000003000204B
(1740126100.469242) can0 1DC#0200000C
(1740126100.471891) can0 18E#00005C
(1740126100.474781) can0 1A4#000000C00000002B
(1740126100.474807) can0 1B0#00000000000066
(1740126100.474810) can0 1D0#000000000000000A
(1740126100.476405) can0 164#000000009600003B
(1740126100.476431) can0 039#0093
(1740126100.478133) can0 158#0000000000000019
(1740126100.478159) can0 188#070080010007
(1740126100.478354) can0 136#000200000000001B
(1740126100.478664) can0 13A#5100310000000097
(1740126100.478883) can0 13F#0000000000000014
(1740126100.479108) can0 17C#000000003000205A
(1740126100.481882) can0 18E#00006B
(1740126100.486301) can0 164#000000009700000D
(1740126100.487925) can0 158#0000000000000028
(1740126100.488104) can0 188#070080010016
(1740126100.488422) can0 136#000200000000002A
(1740126100.488581) can0 13A#51003100000000A6
(1740126100.488838) can0 13F#0000000000000023
(1740126100.489062) can0 17C#0000000030002069
(1740126100.489252) can0 1DC#0200001B
(1740126100.491978) can0 18E#00007A
(1740126100.493088) can0 039#00A2
(1740126100.494233) can0 1A4#000000C00000003A
(1740126100.494422) can0 1B0#00000000000075
(1740126100.494677) can0 1D0#000000000000000A
(1740126100.496272) can0 164#000000009600001D
(1740126100.496580) can0 294#020C40043E9D002A
(1740126100.497966) can0 158#0000000000000037
(1740126100.498104) can0 188#070080010025
(1740126100.498337) can0 136#0002000000000039
(1740126100.498569) can0 13A#51003100000000B5
(1740126100.498840) can0 13F#0000000000000032
(1740126100.499084) can0 17C#0000000030002078
(1740126100.501944) can0 18E#00004D
(1740126100.506362) can0 164#000000009700002B
(1740126100.507962) can0 158#000000000000000A
(1740126100.508109) can0 188#070080010034
(1740126100.508414) can0 136#000200000000000C
(1740126100.508643) can0 13A#5100310000000088
(1740126100.508820) can0 13F#0000000000000005
(1740126100.509144) can0 17C#000000003000204B
(1740126100.509253) can0 1DC#0200002A
(1740126100.509450) can0 039#00B1
(1740126100.511928) can0 18E#00005C
(1740126100.514274) can0 1A4#000000C00000000D
(1740126100.514432) can0 1B0#00000000000048
(1740126100.514792) can0 1D0#000000000000000A
(1740126100.516509) can0 164#000000009700003A
(1740126100.518125) can0 158#0000000000000019
(1740126100.518151) can0 188#070080010007
(1740126100.518409) can0 136#000200000000001B
(1740126100.518641) can0 13A#5100310000000097
(1740126100.518836) can0 13F#0000000000000014
(1740126100.519129) can0 17C#000000003000205A
(1740126100.520489) can0 305#8017
(1740126100.521887) can0 18E#00006B
(1740126100.525912) can0 039#0084
(1740126100.526456) can0 164#000000009600000E
(1740126100.528121) can0 158#0000000000000028
(1740126100.528145) can0 188#070080010016
(1740126100.528351) can0 136#000200000000002A
(1740126100.528639) can0 13A#51003100000000A6
(1740126100.528843) can0 13F#0000000000000023
(1740126100.529136) can0 17C#0000000030002069
(1740126100.529232) can0 1DC#02000039
(1740126100.529451) can0 320#000030
(1740126100.529689) can0 324#2223000000000E35
(1740126100.529839) can0 37C#000000003F
(1740126100.531915) can0 18E#00007A
(1740126100.534288) can0 1A4#000000C00000001C
(1740126100.534538) can0 1B0#00000000000057
(1740126100.534766) can0 1D0#000000000000000A
(1740126100.536442) can0 164#0000800096000015
(1740126100.536727) can0 294#020C40043E9D0039
(1740126100.537076) can0 309#000000000000001B
(1740126100.537332) can0 428#000000043E9D1E
(1740126100.537496) can0 42A#0017
(1740126100.537786) can0 405#000000000000021C
(1740126100.538054) can0 158#0000000000000037
(1740126100.538281) can0 136#0002000000000039
(1740126100.538468) can0 13A#51003100000000B5
(1740126100.538785) can0 13F#0000000000000032
(1740126100.539043) can0 17C#0000000030002078
(1740126100.539234) can0 188#070080010025
(1740126100.541953) can0 18E#00004D
(1740126100.542441) can0 039#0093
(1740126100.546470) can0 164#000080259700002C
(1740126100.547946) can0 158#000000000000000A
(1740126100.548139) can0 188#070080010034
(1740126100.548403) can0 136#000200000000000C
(1740126100.548656) can0 13A#5100310000000088
(1740126100.548896) can0 13F#0000000000000005
(1740126100.549158) can0 17C#000000003000204B
(1740126100.549338) can0 1DC#0200000C
(1740126100.551919) can0 18E#00005C
(1740126100.554262) can0 1A4#000000C00000002B
(1740126100.554507) can0 1B0#00000000000066
(1740126100.554782) can0 1D0#000000000000000A
(1740126100.556340) can0 164#000080259600003C
(1740126100.557909) can0 158#0000000000000019
(1740126100.558140) can0 188#070080010007
(1740126100.558423) can0 136#000200000000001B
(1740126100.558637) can0 13A#5100310000000097
(1740126100.558815) can0 13F#0000000000000014
(1740126100.558953) can0 039#00A2
(1740126100.559268) can0 17C#000000003000205A
(1740126100.561985) can0 18E#00006B
(1740126100.566423) can0 164#000080259600000F
(1740126100.567943) can0 158#0000000000000028
(1740126100.568117) can0 188#070080010016
(1740126100.568411) can0 136#000200000000002A
(1740126100.568609) can0 13A#51003100000000A6
(1740126100.568802) can0 13F#0000000000000023
(1740126100.569193) can0 17C#0000000030002069
(1740126100.569233) can0 1DC#0200001B
(1740126100.571936) can0 18E#00007A
(1740126100.574304) can0 1A4#000000C00000003A
(1740126100.574491) can0 1B0#00000000000075
(1740126100.574783) can0 1D0#000000000000000A
(1740126100.575431) can0 039#00B1
(1740126100.576649) can0 164#000080259600001E
(1740126100.576673) can0 294#020C40043E9D000C
(1740126100.577979) can0 158#0000000000000037
(1740126100.578140) can0 188#070080010025
(1740126100.578411) can0 136#0002000000000039
(1740126100.578638) can0 13A#51003100000000B5
(1740126100.578897) can0 13F#0000000000000032
(1740126100.579148) can0 17C#0000000030002078
(1740126100.582122) can0 18E#00004D
(1740126100.586445) can0 164#000080259700002C
(1740126100.587943) can0 158#000000000000000A
(1740126100.588286) can0 188#070080010034
(1740126100.588324) can0 136#000200000000000C
(1740126100.588576) can0 13A#5100310000000088
(1740126100.588812) can0 13F#0000000000000005
(1740126100.589051) can0 17C#000000003000204B
(1740126100.589235) can0 1DC#0200002A
(1740126100.591973) can0 18E#00005C
(1740126100.592023) can0 039#0084
(1740126100.594401) can0 1A4#000000C00000000D
(1740126100.594449) can0 1B0#00000000000048
(1740126100.594792) can0 1D0#000000000000000A
(1740126100.596799) can0 164#000080259600003C
(1740126100.598147) can0 158#0000000000000019
(1740126100.598171) can0 188#070080010007
(1740126100.598355) can0 136#000200000000001B
(1740126100.598642) can0 13A#5100310000000097
(1740126100.598822) can0 13F#0000000000000014
(1740126100.599081) can0 17C#000000003000205A
(1740126100.601872) can0 18E#00006B
(1740126100.606393) can0 164#000080259600000F
(1740126100.608123) can0 158#0000000000000028
(1740126100.608150) can0 188#070080010016
(1740126100.608414) can0 136#000200000000002A
(1740126100.608466) can0 039#0093
(1740126100.608786) can0 13A#51003100000000A6
(1740126100.608968) can0 13F#0000000000000023
(1740126100.609260) can0 17C#0000000030002069
(1740126100.609389) can0 1DC#02000039
(1740126100.611955) can0 18E#00007A
(1740126100.614301) can0 1A4#000000C00000001C
(1740126100.614435) can0 1B0#00000000000057
(1740126100.614788) can0 1D0#000000000000000A
(1740126100.616290) can0 164#000080259600001E
(1740126100.616577) can0 294#020C40043E9D001B
(1740126100.617941) can0 158#0000000000000037
(1740126100.618154) can0 188#070080010025
(1740126100.618400) can0 136#0002000000000039
(1740126100.618634) can0 13A#51003100000000B5
(1740126100.618822) can0 13F#0000000000000032
(1740126100.619144) can0 17C#0000000030002078
(1740126100.622114) can0 18E#00004D
(1740126100.625031) can0 039#00A2
(1740126100.625071) can0 305#8026
(1740126100.626501) can0 164#000080259700002C
(1740126100.628151) can0 158#000000000000000A
(1740126100.628176) can0 188#070080010034
(1740126100.628362) can0 136#000200000000000C
(1740126100.628640) can0 13A#5100310000000088
(1740126100.628845) can0 13F#0000000000000005
(1740126100.629060) can0 17C#000000003000204B
(1740126100.629321) can0 1DC#0200000C
(1740126100.629408) can0 320#000003
(1740126100.629700) can0 324#2223000000000E08
(1740126100.629821) can0 37C#0000000002
(1740126100.630151) can0 40C#0330373433330005
(1740126100.630234) can0 454#00FA02
(1740126100.630422) can0 465#64644242282805
(1740126100.631889) can0 18E#00005C
(1740126100.634235) can0 1A4#000000C00000002B
(1740126100.634467) can0 1B0#00000000000066
(1740126100.634748) can0 1D0#000000000000000A
(1740126100.636433) can0 164#000080259600003C
(1740126100.636755) can0 309#000000000000002A
(1740126100.637969) can0 158#0000000000000019
(1740126100.638139) can0 188#070080010007
(1740126100.638409) can0 136#000200000000001B
(1740126100.638660) can0 13A#5100310000000097
(1740126100.638811) can0 13F#0000000000000014
(1740126100.639161) can0 17C#000000003000205A
(1740126100.641481) can0 039#00B1
(1740126100.641904) can0 18E#00006B
(1740126100.646373) can0 164#000080259600000F
(1740126100.647966) can0 158#0000000000000028
(1740126100.648124) can0 188#070080010016
(1740126100.648375) can0 136#000200000000002A
(1740126100.648545) can0 13A#51003100000000A6
(1740126100.648813) can0 13F#0000000000000023
(1740126100.649045) can0 17C#0000000030002069
(1740126100.649234) can0 1DC#0200001B
(1740126100.651931) can0 18E#00007A
(1740126100.654294) can0 1A4#000000C00000003A
(1740126100.654513) can0 1B0#00000000000075
(1740126100.654799) can0 1D0#000000000000000A
(1740126100.656362) can0 164#000080259600001E
(1740126100.656653) can0 294#020C40043E9D002A
(1740126100.658149) can0 158#0000000000000037
(1740126100.658172) can0 039#0084
(1740126100.658326) can0 136#0002000000000039
(1740126100.658575) can0 13A#51003100000000B5
(1740126100.658864) can0 13F#0000000000000032
(1740126100.659065) can0 17C#0000000030002078
(1740126100.659291) can0 188#070080010025
(1740126100.661979) can0 18E#00004D
(1740126100.666373) can0 164#000080259700002C
(1740126100.667915) can0 158#000000000000000A
(1740126100.668075) can0 188#070080010034
(1740126100.668306) can0 136#000200000000000C
(1740126100.668585) can0 13A#5100310000000088
(1740126100.668871) can0 13F#0000000000000005
(1740126100.669112) can0 17C#000000003000204B
(1740126100.669694) can0 1DC#0200002A
(1740126100.671902) can0 18E#00005C
(1740126100.674319) can0 1A4#000000C00000000D
(1740126100.674529) can0 1B0#00000000000048
(1740126100.674601) can0 039#0093
(1740126100.674925) can0 1D0#000000000000000A
(1740126100.676264) can0 164#000080259600003C
(1740126100.677942) can0 158#0000000000000019
(1740126100.678155) can0 188#070080010007
(1740126100.678407) can0 136#000200000000001B
(1740126100.678653) can0 13A#5100310000000097
(1740126100.678895) can0 13F#0000000000000014
(1740126100.679153) can0 17C#000000003000205A
(1740126100.681891) can0 18E#00006B
(1740126100.686337) can0 164#000080259600000F
(1740126100.687950) can0 158#0000000000000028
(1740126100.688151) can0 188#070080010016
(1740126100.688417) can0 136#000200000000002A
(1740126100.688667) can0 13A#51003100000000A6
(1740126100.688816) can0 13F#0000000000000023
(1740126100.689113) can0 17C#0000000030002069
(1740126100.689235) can0 1DC#02000039
(1740126100.690944) can0 039#00A2
(1740126100.691957) can0 18E#00007A
(1740126100.694283) can0 1A4#000000C00000001C
(1740126100.694533) can0 1B0#00000000000057
(1740126100.694762) can0 1D0#000000000000000A
(1740126100.696530) can0 164#000080259600001E
(1740126100.696839) can0 294#020C40043E9D0039
(1740126100.697945) can0 158#0000000000000037
(1740126100.698129) can0 188#070080010025
(1740126100.698415) can0 136#0002000000000039
(1740126100.698590) can0 13A#51003100000000B5
(1740126100.698894) can0 13F#0000000000000032
(1740126100.699171) can0 17C#0000000030002078
(1740126100.701899) can0 18E#00004D
(1740126100.706321) can0 164#000080259600002D
(1740126100.707436) can0 039#00B1
(1740126100.707944) can0 158#000000000000000A
(1740126100.708070) can0 188#070080010034
(1740126100.708390) can0 136#000200000000000C
(1740126100.708647) can0 13A#5100310000000088
(1740126100.708817) can0 13F#0000000000000005
(1740126100.709115) can0 17C#000000003000204B
(1740126100.709248) can0 1DC#0200000C
(1740126100.711899) can0 18E#00005C
(1740126100.714298) can0 1A4#000000C00000002B
(1740126100.714532) can0 1B0#00000000000066
(1740126100.714715) can0 1D0#000000000000000A
(1740126100.716241) can0 164#000080259600003C
(1740126100.717952) can0 158#0000000000000019
(1740126100.718095) can0 188#070080010007
(1740126100.718391) can0 136#000200000000001B
(1740126100.718652) can0 13A#5100310000000097
(1740126100.718808) can0 13F#0000000000000014
(1740126100.719139) can0 17C#000000003000205A
(1740126100.721888) can0 18E#00006B
(1740126100.724094) can0 039#0084
(1740126100.726395) can0 164#000080259600000F
(1740126100.728109) can0 158#0000000000000028
(1740126100.728139) can0 188#070080010016
(1740126100.728428) can0 136#000200000000002A
(1740126100.728579) can0 13A#51003100000000A6
(1740126100.728850) can0 13F#0000000000000023
(1740126100.729107) can0 17C#0000000030002069
(1740126100.729257) can0 1DC#0200001B
(1740126100.729420) can0 320#000012
(1740126100.729496) can0 305#8035
(1740126100.729841) can0 324#2223000000000E17
(1740126100.729939) can0 37C#0000000011
(1740126100.732073) can0 18E#00007A
(1740126100.734357) can0 1A4#000000C00000003A
(1740126100.734495) can0 1B0#00000000000075
(1740126100.734775) can0 1D0#000000000000000A
(1740126100.736663) can0 164#000080259600001E
(1740126100.736703) can0 294#020C40043E9D000C
(1740126100.736934) can0 309#0000000000000039
(1740126100.737961) can0 158#0000000000000037
(1740126100.738065) can0 188#070080010025
(1740126100.738418) can0 136#0002000000000039
(1740126100.738649) can0 13A#51003100000000B5
(1740126100.738816) can0 13F#0000000000000032
(1740126100.739137) can0 17C#0000000030002078
(1740126100.740507) can0 039#0093
(1740126100.741926) can0 18E#00004D
(1740126100.746392) can0 164#000080259600002D
(1740126100.747987) can0 158#000000000000000A
(1740126100.748089) can0 188#070080010034
(1740126100.748396) can0 136#000200000000000C
(1740126100.748626) can0 13A#5100310000000088
(1740126100.748838) can0 13F#0000000000000005
(1740126100.749114) can0 17C#000000003000204B
(1740126100.749208) can0 1DC#0200002A
(1740126100.751900) can0 18E#00005C
(1740126100.754280) can0 1A4#000000C00000000D
(1740126100.754512) can0 1B0#00000000000048
(1740126100.754780) can0 1D0#000000000000000A
(1740126100.756322) can0 164#000080259600003C
(1740126100.756957) can0 039#00A2
(1740126100.757961) can0 158#0000000000000019
(1740126100.758068) can0 188#070080010007
(1740126100.758377) can0 136#000200000000001B
(1740126100.758639) can0 13A#5100310000000097
(1740126100.758815) can0 13F#0000000000000014
(1740126100.759142) can0 17C#000000003000205A
(1740126100.761934) can0 18E#00006B
(1740126100.766375) can0 164#000080259600000F
(1740126100.768135) can0 158#0000000000000028
(1740126100.768170) can0 188#070080010016
(1740126100.768328) can0 136#000200000000002A
(1740126100.768620) can0 13A#51003100000000A6
(1740126100.768799) can0 13F#0000000000000023
(1740126100.769150) can0 17C#0000000030002069
(1740126100.769343) can0 1DC#02000039
(1740126100.771884) can0 18E#00007A
(1740126100.773380) can0 039#00B1
(1740126100.774274) can0 1A4#000000C00000001C
(1740126100.774492) can0 1B0#00000000000057
(1740126100.774744) can0 1D0#000000000000000A
(1740126100.776214) can0 164#000080259600001E
(1740126100.776497) can0 294#020C40043E9D001B
(1740126100.777962) can0 158#0000000000000037
(1740126100.778148) can0 188#070080010025
(1740126100.778342) can0 136#0002000000000039
(1740126100.778642) can0 13A#51003100000000B5
(1740126100.778826) can0 13F#0000000000000032
(1740126100.779087) can0 17C#0000000030002078
(1740126100.781955) can0 18E#00004D
(1740126100.786344) can0 164#000080259600002D
(1740126100.787948) can0 158#000000000000000A
(1740126100.788137) can0 188#070080010034
(1740126100.788405) can0 136#000200000000000C
(1740126100.788593) can0 13A#5100310000000088
(1740126100.788880) can0 13F#0000000000000005
(1740126100.789049) can0 17C#000000003000204B
(1740126100.789236) can0 1DC#0200000C
(1740126100.789958) can0 039#0084
(1740126100.791881) can0 18E#00005C
(1740126100.794238) can0 1A4#000000C00000002B
(1740126100.794469) can0 1B0#00000000000066
(1740126100.794742) can0 1D0#000000000000000A
(1740126100.796502) can0 164#000080259600003C
(1740126100.797958) can0 158#0000000000000019
(1740126100.798075) can0 188#070080010007
(1740126100.798342) can0 136#000200000000001B
(1740126100.798594) can0 13A#5100310000000097
(1740126100.798815) can0 13F#0000000000000014
(1740126100.799062) can0 17C#000000003000205A
(1740126100.802550) can0 18E#00006B
(1740126100.806305) can0 164#000080259600000F
(1740126100.806400) can0 039#0093
(1740126100.807889) can0 158#0000000000000028
(1740126100.808089) can0 188#070080010016
(1740126100.808352) can0 136#000200000000002A
(1740126100.808591) can0 13A#51003100000000A6
(1740126100.808864) can0 13F#0000000000000023
(1740126100.809083) can0 17C#0000000030002069
(1740126100.809228) can0 1DC#0200001B
(1740126100.812112) can0 18E#00007A
(1740126100.814341) can0 1A4#000000C00000003A
(1740126100.814558) can0 1B0#00000000000075
(1740126100.814825) can0 1D0#000000000000000A
(1740126100.816280) can0 164#000080259600001E
(1740126100.816556) can0 294#020C40043E9D002A
(1740126100.817926) can0 158#0000000000000037
(1740126100.818157) can0 188#070080010025
(1740126100.818368) can0 136#0002000000000039
(1740126100.818637) can0 13A#51003100000000B5
(1740126100.818813) can0 13F#0000000000000032
(1740126100.819114) can0 17C#0000000030002078
(1740126100.821906) can0 18E#00004D
(1740126100.822955) can0 039#00A2
(1740126100.826462) can0 164#000080259600002D
(1740126100.828142) can0 158#000000000000000A
(1740126100.828165) can0 188#070080010034
(1740126100.828422) can0 136#000200000000000C
(1740126100.828642) can0 13A#5100310000000088
(1740126100.828860) can0 13F#0000000000000005
(1740126100.829087) can0 17C#000000003000204B
(1740126100.829306) can0 1DC#0200002A
(1740126100.829362) can0 320#000021
(1740126100.829625) can0 324#2223000000000E26
(1740126100.829810) can0 37C#0000000020
(1740126100.831925) can0 18E#00005C
(1740126100.834118) can0 305#8008
(1740126100.834383) can0 1A4#000000C00000000D
(1740126100.834624) can0 1B0#00000000000048
(1740126100.834785) can0 1D0#000000000000000A
(1740126100.836484) can0 164#000080259700003B
(1740126100.836741) can0 309#000000000000000C
(1740126100.836995) can0 428#000000043E9D2D
(1740126100.837221) can0 42A#0026
(1740126100.837483) can0 405#0000040000000227
(1740126100.837895) can0 158#0000000000000019
(1740126100.838086) can0 188#070080010007
(1740126100.838310) can0 136#000200000000001B
(1740126100.838559) can0 13A#5100310000000097
(1740126100.838806) can0 13F#0000000000000014
(1740126100.839148) can0 17C#000000003000205A
(1740126100.839524) can0 039#00B1
(1740126100.841904) can0 18E#00006B
(1740126100.846446) can0 164#000080259600000F
(1740126100.847973) can0 158#0000000000000028
(1740126100.848198) can0 188#070080010016
(1740126100.848427) can0 136#000200000000002A
(1740126100.848652) can0 13A#51003100000000A6
(1740126100.848839) can0 13F#0000000000000023
(1740126100.849061) can0 17C#0000000030002069
(1740126100.849211) can0 1DC#02000039
(1740126100.851970) can0 18E#00007A
(1740126100.854329) can0 1A4#000000C00000001C
(1740126100.854572) can0 1B0#00000000000057
(1740126100.854739) can0 1D0#000000000000000A
(1740126100.855985) can0 039#0084
(1740126100.856363) can0 164#000080259600001E
(1740126100.856625) can0 294#020C40043E9D0039
(1740126100.858138) can0 158#0000000000000037
(1740126100.858162) can0 188#070080010025
(1740126100.858331) can0 136#0002000000000039
(1740126100.858637) can0 13A#51003100000000B5
(1740126100.858817) can0 13F#0000000000000032
(1740126100.859145) can0 17C#0000000030002078
(1740126100.862129) can0 18E#00004D
(1740126100.866466) can0 164#000080259600002D
(1740126100.867974) can0 158#000000000000000A
(1740126100.868124) can0 188#070080010034
(1740126100.868375) can0 136#000200000000000C
(1740126100.868567) can0 13A#5100310000000088
(1740126100.868809) can0 13F#0000000000000005
(1740126100.869051) can0 17C#000000003000204B
(1740126100.869296) can0 1DC#0200000C
(1740126100.871877) can0 18E#00005C
(1740126100.872432) can0 039#0093
(1740126100.874489) can0 1A4#000000C00000002B
(1740126100.874537) can0 1B0#00000000000066
(1740126100.874782) can0 1D0#000000000000000A
(1740126100.876392) can0 164#000080259700003B
(1740126100.878126) can0 158#0000000000000019
(1740126100.878150) can0 188#070080010007
(1740126100.878320) can0 136#000200000000001B
(1740126100.878651) can0 13A#5100310000000097
(1740126100.878814) can0 13F#0000000000000014
(1740126100.879112) can0 17C#000000003000205A
(1740126100.881908) can0 18E#00006B
(1740126100.886475) can0 164#000080259600000F
(1740126100.887945) can0 158#0000000000000028
(1740126100.888079) can0 188#070080010016
(1740126100.888373) can0 136#000200000000002A
(1740126100.888612) can0 13A#51003100000000A6
(1740126100.888795) can0 13F#0000000000000023
(1740126100.888937) can0 039#00A2
(1740126100.889246) can0 17C#0000000030002069
(1740126100.889394) can0 1DC#0200001B
(1740126100.892098) can0 18E#00007A
(1740126100.894375) can0 1A4#000000C00000003A
(1740126100.894507) can0 1B0#00000000000075
(1740126100.894842) can0 1D0#000000000000000A
(1740126100.896560) can0 164#000080259600001E
(1740126100.896809) can0 294#020C40043E9D000C
(1740126100.898132) can0 158#0000000000000037
(1740126100.898157) can0 188#070080010025
(1740126100.898378) can0 136#0002000000000039
(1740126100.898612) can0 13A#51003100000000B5
(1740126100.898840) can0 13F#0000000000000032
(1740126100.899065) can0 17C#0000000030002078
(1740126100.901923) can0 18E#00004D
(1740126100.905824) can0 039#00B1
(1740126100.906481) can0 164#000080259600002D
(1740126100.908126) can0 158#000000000000000A
(1740126100.908152) can0 188#070080010034
(1740126100.908361) can0 136#000200000000000C
(1740126100.908620) can0 13A#5100310000000088
(1740126100.908817) can0 13F#0000000000000005
(1740126100.909113) can0 17C#000000003000204B
(1740126100.909217) can0 1DC#0200002A
(1740126100.911740) can0 18E#00005C
(1740126100.914406) can0 1A4#000000C00000000D
(1740126100.914555) can0 1B0#00000000000048
(1740126100.914902) can0 1D0#000000000000000A
(1740126100.916287) can0 164#000080259700003B
(1740126100.917951) can0 158#0000000000000019
(1740126100.918133) can0 188#070080010007
(1740126100.918376) can0 136#000200000000001B
(1740126100.918638) can0 13A#5100310000000097
(1740126100.918816) can0 13F#0000000000000014
(1740126100.919127) can0 17C#000000003000205A
(1740126100.921906) can0 18E#00006B
(1740126100.921938) can0 039#0084
(1740126100.926285) can0 164#000080259600000F
(1740126100.928168) can0 158#0000000000000028
(1740126100.928192) can0 188#070080010016
(1740126100.928421) can0 136#000200000000002A
(1740126100.928640) can0 13A#51003100000000A6
(1740126100.928840) can0 13F#0000000000000023
(1740126100.929136) can0 17C#0000000030002069
(1740126100.929338) can0 1DC#02000039
(1740126100.929372) can0 320#000030
(1740126100.929600) can0 324#2223000000000E35
(1740126100.929805) can0 37C#000000003F
(1740126100.930066) can0 40C#0000000004000013
(1740126100.930281) can0 454#00FA11
(1740126100.930509) can0 465#64644242282814
(1740126100.931918) can0 18E#00007A
(1740126100.934408) can0 1A4#000000C00000001C
(1740126100.934657) can0 1B0#00000000000057
(1740126100.934851) can0 1D0#000000000000000A
(1740126100.936395) can0 164#000080259600001E
(1740126100.936669) can0 294#020C40043E9D001B
(1740126100.936923) can0 309#000000000000001B
(1740126100.937981) can0 158#0000000000000037
(1740126100.938175) can0 188#070080010025
(1740126100.938393) can0 136#0002000000000039
(1740126100.938455) can0 039#0093
(1740126100.938710) can0 13A#51003100000000B5
(1740126100.939018) can0 13F#0000000000000032
(1740126100.939196) can0 17C#0000000030002078
(1740126100.939307) can0 305#8017
(1740126100.941948) can0 18E#00004D
(1740126100.946438) can0 164#000080259600002D
(1740126100.947944) can0 158#000000000000000A
(1740126100.948174) can0 188#070080010034
(1740126100.948425) can0 136#000200000000000C
(1740126100.948654) can0 13A#5100310000000088
(1740126100.948811) can0 13F#0000000000000005
(1740126100.949074) can0 17C#000000003000204B
(1740126100.949219) can0 1DC#0200000C
(1740126100.951975) can0 18E#00005C
(1740126100.954379) can0 1A4#000000C00000002B
(1740126100.954568) can0 1B0#00000000000066
(1740126100.954863) can0 1D0#000000000000000A
(1740126100.954948) can0 039#00A2
(1740126100.956380) can0 164#000080259700003B
(1740126100.957971) can0 158#0000000000000019
(1740126100.958101) can0 188#070080010007
(1740126100.958377) can0 136#000200000000001B
(1740126100.958592) can0 13A#5100310000000097
(1740126100.958802) can0 13F#0000000000000014
(1740126100.959108) can0 17C#000000003000205A
(1740126100.961901) can0 18E#00006B
(1740126100.966409) can0 164#000080259600000F
(1740126100.967922) can0 158#0000000000000028
(1740126100.968150) can0 188#070080010016
(1740126100.968384) can0 136#000200000000002A
(1740126100.968619) can0 13A#51003100000000A6
(1740126100.968863) can0 13F#0000000000000023
(1740126100.969116) can0 17C#0000000030002069
(1740126100.969216) can0 1DC#0200001B
(1740126100.971510) can0 039#00B1
(1740126100.971898) can0 18E#00007A
(1740126100.974441) can0 1A4#000000C00000003A
(1740126100.974586) can0 1B0#00000000000075
(1740126100.974871) can0 1D0#000000000000000A
(1740126100.976309) can0 164#000080259700001D
(1740126100.976581) can0 294#020C40043E9D002A
(1740126100.978128) can0 158#0000000000000037
(1740126100.978152) can0 188#070080010025
(1740126100.978320) can0 136#0002000000000039
(1740126100.978608) can0 13A#51003100000000B5
(1740126100.978817) can0 13F#0000000000000032
(1740126100.979120) can0 17C#0000000030002078
(1740126100.981933) can0 18E#00004D
(1740126100.986318) can0 164#000080259700002C
(1740126100.987932) can0 158#000000000000000A
(1740126100.988011) can0 039#0084
(1740126100.988316) can0 136#000200000000000C
(1740126100.988554) can0 13A#5100310000000088
(1740126100.988773) can0 13F#0000000000000005
(1740126100.989079) can0 17C#000000003000204B
(1740126100.989190) can0 188#070080010034
(1740126100.989404) can0 1DC#0200002A
(1740126100.991886) can0 18E#00005C
(1740126100.994375) can0 1A4#000000C00000000D
(1740126100.994613) can0 1B0#00000000000048
(1740126100.994816) can0 1D0#000000000000000A
(1740126100.996501) can0 164#000080249700003C
(1740126100.997934) can0 158#0000000000000019
(1740126100.998090) can0 188#070080010007
(1740126100.998368) can0 136#000200000000001B
(1740126100.998640) can0 13A#5100310000000097
(1740126100.998810) can0 13F#0000000000000014
(1740126100.999108) can0 17C#000000003000205A
(1740126101.002009) can0 18E#00006B
(1740126101.004646) can0 039#0093
(1740126101.006359) can0 164#0000802496000000
(1740126101.008118) can0 158#0000000000000028
(1740126101.008142) can0 188#070080010016
(1740126101.008324) can0 136#000200000000002A
(1740126101.008612) can0 13A#51003100000000A6
(1740126101.008792) can0 13F#0000000000000023
(1740126101.009126) can0 17C#0000000030002069
(1740126101.009217) can0 1DC#02000039
(1740126101.011967) can0 18E#00007A
(1740126101.014439) can0 1A4#000000C00000001C
(1740126101.014585) can0 1B0#00000000000057
(1740126101.014908) can0 1D0#000000000000000A
(1740126101.016280) can0 164#000080249600001F
(1740126101.016547) can0 294#020C40043E9D0039
(1740126101.017940) can0 158#0000000000000037
(1740126101.018089) can0 188#070080010025
(1740126101.018371) can0 136#0002000000000039
(1740126101.018651) can0 13A#51003100000000B5
(1740126101.018810) can0 13F#0000000000000032
(1740126101.019148) can0 17C#0000000030002078
(1740126101.021012) can0 039#00A2
(1740126101.021926) can0 18E#00004D
(1740126101.026314) can0 164#000080249700002D
(1740126101.027962) can0 158#000000000000000A
(1740126101.028086) can0 188#070080010034
(1740126101.028362) can0 136#000200000000000C
(1740126101.028597) can0 13A#5100310000000088
(1740126101.028809) can0 13F#0000000000000005
(1740126101.029099) can0 17C#000000003000204B
(1740126101.029213) can0 1DC#0200000C
(1740126101.029420) can0 320#000003
(1740126101.029681) can0 324#2223000000000E08
(1740126101.029812) can0 37C#0000000002
(1740126101.031887) can0 18E#00005C
(1740126101.034719) can0 1A4#000000C00000002B
(1740126101.034745) can0 1B0#00000000000066
(1740126101.034878) can0 1D0#000000000000000A
(1740126101.036549) can0 164#000080249700003C
(1740126101.036589) can0 309#000000000000002A
(1740126101.037641) can0 039#00B1
(1740126101.037878) can0 158#0000000000000019
(1740126101.038134) can0 188#070080010007
(1740126101.038370) can0 136#000200000000001B
(1740126101.038632) can0 13A#5100310000000097
(1740126101.038814) can0 13F#0000000000000014
(1740126101.039107) can0 17C#000000003000205A
(1740126101.042206) can0 18E#00006B
(1740126101.043002) can0 305#8026
(1740126101.046575) can0 164#0000802496000000
(1740126101.048145) can0 158#0000000000000028
(1740126101.048169) can0 188#070080010016
(1740126101.048323) can0 136#000200000000002A
(1740126101.048624) can0 13A#51003100000000A6
(1740126101.048812) can0 13F#0000000000000023
(1740126101.049115) can0 17C#0000000030002069
(1740126101.049303) can0 1DC#0200001B
(1740126101.051738) can0 18E#00007A
(1740126101.054108) can0 039#0084
(1740126101.054412) can0 1A4#000000C00000003A
(1740126101.054651) can0 1B0#00000000000075
(1740126101.054845) can0 1D0#000000000000000A
(1740126101.056561) can0 164#000080249600001F
(1740126101.056614) can0 294#020C40043E9D000C
(1740126101.057932) can0 158#0000000000000037
(1740126101.058119) can0 188#070080010025
(1740126101.058354) can0 136#0002000000000039
(1740126101.058584) can0 13A#51003100000000B5
(1740126101.058810) can0 13F#0000000000000032
(1740126101.059047) can0 17C#0000000030002078
(1740126101.061892) can0 18E#00004D
(1740126101.066322) can0 164#000080249600002E
(1740126101.067935) can0 158#000000000000000A
(1740126101.068099) can0 188#070080010034
(1740126101.068339) can0 136#000200000000000C
(1740126101.068569) can0 13A#5100310000000088
(1740126101.068809) can0 13F#0000000000000005
(1740126101.069040) can0 17C#000000003000204B
(1740126101.069200) can0 1DC#0200002A
(1740126101.070380) can0 039#0093
(1740126101.071888) can0 18E#00005C
(1740126101.074437) can0 1A4#000000C00000000D
(1740126101.074572) can0 1B0#00000000000048
(1740126101.074886) can0 1D0#000000000000000A
(1740126101.076307) can0 164#000080249600003D
(1740126101.078146) can0 158#0000000000000019
(1740126101.078170) can0 188#070080010007
(1740126101.078360) can0 136#000200000000001B
(1740126101.078556) can0 13A#5100310000000097
(1740126101.078820) can0 13F#0000000000000014
(1740126101.079124) can0 17C#000000003000205A
(1740126101.082118) can0 18E#00006B
(1740126101.086582) can0 164#000080249700000F
(1740126101.086906) can0 039#00A2
(1740126101.087935) can0 158#0000000000000028
(1740126101.088079) can0 188#070080010016
(1740126101.088380) can0 136#000200000000002A
(1740126101.088631) can0 13A#51003100000000A6
(1740126101.088822) can0 13F#0000000000000023
(1740126101.089100) can0 17C#0000000030002069
(1740126101.089252) can0 1DC#02000039
(1740126101.091896) can0 18E#00007A
(1740126101.094401) can0 1A4#000000C00000001C
(1740126101.094652) can0 1B0#00000000000057
(1740126101.094846) can0 1D0#000000000000000A
(1740126101.096534) can0 164#000080259600001E
(1740126101.096766) can0 294#020C40043E9D001B
(1740126101.097928) can0 158#0000000000000037
(1740126101.098080) can0 188#070080010025
(1740126101.098360) can0 136#0002000000000039
(1740126101.098637) can0 13A#51003100000000B5
(1740126101.098819) can0 13F#0000000000000032
(1740126101.099049) can0 17C#0000000030002078
(1740126101.101888) can0 18E#00004D
(1740126101.103420) can0 039#00B1
(1740126101.106299) can0 164#000080259600002D
(1740126101.107898) can0 158#000000000000000A
(1740126101.108092) can0 188#070080010034
(1740126101.108305) can0 136#000200000000000C
(1740126101.108570) can0 13A#5100310000000088
(1740126101.108817) can0 13F#0000000000000005
(1740126101.109077) can0 17C#000000003000204B
(1740126101.109233) can0 1DC#0200000C
(1740126101.111898) can0 18E#00005C
(1740126101.114404) can0 1A4#000000C00000002B
(1740126101.114654) can0 1B0#00000000000066
(1740126101.114835) can0 1D0#000000000000000A
(1740126101.116273) can0 164#000080259600003C
(1740126101.117940) can0 158#0000000000000019
(1740126101.118126) can0 188#070080010007
(1740126101.118366) can0 136#000200000000001B
(1740126101.118575) can0 13A#5100310000000097
(1740126101.118816) can0 13F#0000000000000014
(1740126101.119074) can0 17C#000000003000205A
(1740126101.119978) can0 039#0084
(1740126101.121838) can0 18E#00006B
(1740126101.126299) can0 164#000080259700000E
(1740126101.127950) can0 158#0000000000000028
(1740126101.128130) can0 188#070080010016
(1740126101.128365) can0 136#000200000000002A
(1740126101.128601) can0 13A#51003100000000A6
(1740126101.128797) can0 13F#0000000000000023
(1740126101.129079) can0 17C#0000000030002069
(1740126101.129271) can0 1DC#0200001B
(1740126101.129373) can0 320#000012
(1740126101.129603) can0 324#2223000000000E17
(1740126101.129782) can0 37C#0000000011
(1740126101.131856) can0 18E#00007A
(1740126101.134431) can0 1A4#000000C00000003A
(1740126101.134657) can0 1B0#00000000000075
(1740126101.134838) can0 1D0#000000000000000A
(1740126101.136326) can0 164#000080259600001E
(1740126101.136398) can0 039#0093
(1740126101.136675) can0 294#020C40043E9D002A
(1740126101.136932) can0 309#0000000000000039
(1740126101.137195) can0 428#000000043E9D3C
(1740126101.137424) can0 42A#0035
(1740126101.137636) can0 405#000000000000023A
(1740126101.137901) can0 158#0000000000000037
(1740126101.138155) can0 136#0002000000000039
(1740126101.138378) can0 13A#51003100000000B5
(1740126101.138637) can0 13F#0000000000000032
(1740126101.138882) can0 17C#0000000030002078
(1740126101.139135) can0 188#070080010025
(1740126101.141917) can0 18E#00004D
(1740126101.146386) can0 164#000080259700002C
(1740126101.147772) can0 305#8035
(1740126101.147869) can0 158#000000000000000A
(1740126101.148077) can0 188#070080010034
(1740126101.148321) can0 136#000200000000000C
(1740126101.148547) can0 13A#5100310000000088
(1740126101.148794) can0 13F#0000000000000005
(1740126101.149041) can0 17C#000000003000204B
(1740126101.149210) can0 1DC#0200002A
(1740126101.151956) can0 18E#00005C
(1740126101.153038) can0 039#00A2
(1740126101.154364) can0 1A4#000000C00000000D
(1740126101.154579) can0 1B0#00000000000048
(1740126101.154855) can0 1D0#000000000000000A
(1740126101.156354) can0 164#000080259600003C
(1740126101.157888) can0 158#0000000000000019
(1740126101.158080) can0 188#070080010007
(1740126101.158321) can0 136#000200000000001B
(1740126101.158574) can0 13A#5100310000000097
(1740126101.158805) can0 13F#0000000000000014
(1740126101.159039) can0 17C#000000003000205A
(1740126101.161892) can0 18E#00006B
(1740126101.166449) can0 164#000080259700000E
(1740126101.167943) can0 158#0000000000000028
(1740126101.168182) can0 188#070080010016
(1740126101.168349) can0 136#000200000000002A
(1740126101.168573) can0 13A#51003100000000A6
(1740126101.168819) can0 13F#0000000000000023
(1740126101.169060) can0 17C#0000000030002069
(1740126101.169196) can0 1DC#02000039
(1740126101.169383) can0 039#00B1
(1740126101.171935) can0 18E#00007A
(1740126101.174716) can0 1A4#000000C00000001C
(1740126101.174740) can0 1B0#00000000000057
(1740126101.174875) can0 1D0#000000000000000A
(1740126101.176374) can0 164#000080259700001D
(1740126101.176629) can0 294#020C40043E9D0039
(1740126101.178124) can0 158#0000000000000037
(1740126101.178147) can0 188#070080010025
(1740126101.178378) can0 136#0002000000000039
(1740126101.178580) can0 13A#51003100000000B5
(1740126101.178811) can0 13F#0000000000000032
(1740126101.179068) can0 17C#0000000030002078
(1740126101.182093) can0 18E#00004D
(1740126101.185964) can0 039#0084
(1740126101.186350) can0 164#000080259700002C
(1740126101.187887) can0 158#000000000000000A
(1740126101.188066) can0 188#070080010034
(1740126101.188315) can0 136#000200000000000C
(1740126101.188541) can0 13A#5100310000000088
(1740126101.188779) can0 13F#0000000000000005
(1740126101.189044) can0 17C#000000003000204B
(1740126101.189250) can0 1DC#0200000C
(1740126101.191934) can0 18E#00005C
(1740126101.194460) can0 1A4#000000C00000002B
(1740126101.194665) can0 1B0#00000000000066
(1740126101.194883) can0 1D0#000000000000000A
(1740126101.196601) can0 164#000080249600003D
(1740126101.197992) can0 158#0000000000000019
(1740126101.198231) can0 136#000200000000001B
(1740126101.198363) can0 13A#5100310000000097
(1740126101.198645) can0 13F#0000000000000014
(1740126101.198874) can0 17C#000000003000205A
(1740126101.199135) can0 188#070080010007
(1740126101.201882) can0 18E#00006B
(1740126101.202427) can0 039#0093
(1740126101.206425) can0 164#0000802496000000
(1740126101.208030) can0 158#0000000000000028
(1740126101.208074) can0 188#070080010016
(1740126101.208302) can0 136#000200000000002A
(1740126101.208564) can0 13A#51003100000000A6
(1740126101.208802) can0 13F#0000000000000023
(1740126101.209057) can0 17C#0000000030002069
(1740126101.209272) can0 1DC#0200001B
(1740126101.211952) can0 18E#00007A
(1740126101.214457) can0 1A4#000000C00000003A
(1740126101.214692) can0 1B0#00000000000075
(1740126101.214874) can0 1D0#000000000000000A
(1740126101.216288) can0 164#000080249600001F
(1740126101.216518) can0 294#020C40043E9D000C
(1740126101.217898) can0 158#0000000000000037
(1740126101.218119) can0 136#0002000000000039
(1740126101.218358) can0 13A#51003100000000B5
(1740126101.218610) can0 13F#0000000000000032
(1740126101.218854) can0 17C#0000000030002078
(1740126101.219034) can0 039#00A2
(1740126101.219206) can0 188#070080010025
(1740126101.221923) can0 18E#00004D
(1740126101.226336) can0 164#000080249700002D
(1740126101.228159) can0 158#000000000000000A
(1740126101.228182) can0 188#070080010034
(1740126101.228404) can0 136#000200000000000C
(1740126101.228578) can0 13A#5100310000000088
(1740126101.228786) can0 13F#0000000000000005
(1740126101.229105) can0 17C#000000003000204B
(1740126101.229317) can0 1DC#0200002A
(1740126101.229360) can0 320#000021
(1740126101.229613) can0 324#2223000000000E26
(1740126101.229845) can0 37C#0000000020
(1740126101.230087) can0 40C#014A484D46443124
(1740126101.230187) can0 454#00FA20
(1740126101.230418) can0 465#64644242282823
(1740126101.231693) can0 18E#00005C
(1740126101.234466) can0 1A4#000000C00000000D
(1740126101.234674) can0 1B0#00000000000048
(1740126101.234886) can0 1D0#000000000000000A
(1740126101.235462) can0 039#00B1
(1740126101.236446) can0 164#000080249600003D
(1740126101.236680) can0 309#000000000000000C
(1740126101.237958) can0 158#0000000000000019
(1740126101.238148) can0 136#000200000000001B
(1740126101.238442) can0 13A#5100310000000097
(1740126101.238645) can0 13F#0000000000000014
(1740126101.238845) can0 17C#000000003000205A
(1740126101.239112) can0 188#070080010007
(1740126101.242134) can0 18E#00006B
(1740126101.246329) can0 164#000080249700000F
(1740126101.247939) can0 158#0000000000000028
(1740126101.248069) can0 188#070080010016
(1740126101.248298) can0 136#000200000000002A
(1740126101.248553) can0 13A#51003100000000A6
(1740126101.248783) can0 13F#0000000000000023
(1740126101.249068) can0 17C#0000000030002069
(1740126101.249203) can0 1DC#02000039
(1740126101.251864) can0 18E#00007A
(1740126101.252075) can0 039#0084
(1740126101.252205) can0 305#8008
(1740126101.254440) can0 1A4#000000C00000001C
(1740126101.254640) can0 1B0#00000000000057
(1740126101.254888) can0 1D0#000000000000000A
(1740126101.256432) can0 164#000080249600001F
(1740126101.256675) can0 294#020C40043E9D001B
(1740126101.257961) can0 158#0000000000000037
(1740126101.258163) can0 136#0002000000000039
(1740126101.258450) can0 13A#51003100000000B5
(1740126101.258641) can0 13F#0000000000000032
(1740126101.258835) can0 17C#0000000030002078
(1740126101.259094) can0 188#070080010025
(1740126101.262067) can0 18E#00004D
(1740126101.266545) can0 164#000080249700002D
(1740126101.267938) can0 158#000000000000000A
(1740126101.268143) can0 136#000200000000000C
(1740126101.268341) can0 13A#5100310000000088
(1740126101.268476) can0 039#0093
(1740126101.268732) can0 13F#0000000000000005
(1740126101.269010) can0 17C#000000003000204B
(1740126101.269234) can0 188#070080010034
(1740126101.269347) can0 1DC#0200000C
(1740126101.271697) can0 18E#00005C
(1740126101.274714) can0 1A4#000000C00000002B
(1740126101.274738) can0 1B0#00000000000066
(1740126101.274852) can0 1D0#000000000000000A
(1740126101.276403) can0 164#000080249600003D
(1740126101.278136) can0 158#0000000000000019
(1740126101.278160) can0 136#000200000000001B
(1740126101.278412) can0 13A#5100310000000097
(1740126101.278612) can0 13F#0000000000000014
(1740126101.278856) can0 17C#000000003000205A
(1740126101.279074) can0 188#070080010007
(1740126101.281871) can0 18E#00006B
(1740126101.284957) can0 039#00A2
(1740126101.286307) can0 164#000080249700000F
(1740126101.288137) can0 158#0000000000000028
(1740126101.288160) can0 136#000200000000002A
(1740126101.288413) can0 13A#51003100000000A6
(1740126101.288621) can0 13F#0000000000000023
(1740126101.288843) can0 17C#0000000030002069
(1740126101.289066) can0 188#070080010016
(1740126101.289250) can0 1DC#0200001B
(1740126101.292252) can0 18E#00007A
(1740126101.294645) can0 1A4#000000C00000003A
(1740126101.294669) can0 1B0#00000000000075
(1740126101.294935) can0 1D0#000000000000000A
(1740126101.296638) can0 164#000080259600001E
(1740126101.296690) can0 294#020C40043E9D002A
(1740126101.297937) can0 158#0000000000000037
(1740126101.298178) can0 136#0002000000000039
(1740126101.298377) can0 13A#51003100000000B5
(1740126101.298637) can0 13F#0000000000000032
(1740126101.298875) can0 17C#0000000030002078
(1740126101.299068) can0 188#070080010025
(1740126101.301472) can0 039#00B1
(1740126101.301859) can0 18E#00004D
(1740126101.306369) can0 164#000080259600002D
(1740126101.308136) can0 158#000000000000000A
(1740126101.308158) can0 136#000200000000000C
(1740126101.308407) can0 13A#5100310000000088
(1740126101.308617) can0 13F#0000000000000005
(1740126101.308857) can0 17C#000000003000204B
(1740126101.309105) can0 188#070080010034
(1740126101.309230) can0 1DC#0200002A
(1740126101.311844) can0 18E#00005C
(1740126101.314402) can0 1A4#000000C00000000D
(1740126101.314611) can0 1B0#00000000000048
(1740126101.314901) can0 1D0#000000000000000A
(1740126101.316229) can0 164#000080259600003C
(1740126101.317952) can0 158#0000000000000019
(1740126101.317985) can0 039#0084
(1740126101.318267) can0 136#000200000000001B
(1740126101.318533) can0 13A#5100310000000097
(1740126101.318717) can0 13F#0000000000000014
(1740126101.319035) can0 17C#000000003000205A
(1740126101.319240) can0 188#070080010007
(1740126101.321905) can0 18E#00006B
(1740126101.326424) can0 164#000080259700000E
(1740126101.328119) can0 158#0000000000000028
(1740126101.328143) can0 188#070080010016
(1740126101.328354) can0 136#000200000000002A
(1740126101.328550) can0 13A#51003100000000A6
(1740126101.328786) can0 13F#0000000000000023
(1740126101.329102) can0 17C#0000000030002069
(1740126101.329264) can0 1DC#02000039
(1740126101.329451) can0 320#000030
(1740126101.329608) can0 324#2323000000000E34
(1740126101.329811) can0 37C#000000003F
(1740126101.331920) can0 18E#00007A
(1740126101.334497) can0 1A4#000000C00000001C
(1740126101.334532) can0 039#0093
(1740126101.334810) can0 1B0#00000000000057
(1740126101.335045) can0 1D0#000000000000000A
(1740126101.336542) can0 164#000080259600001E
(1740126101.336698) can0 294#020C40043E9D0039
(1740126101.336917) can0 309#000000000000001B
(1740126101.337931) can0 158#0000000000000037
(1740126101.338145) can0 136#0002000000000039
(1740126101.338331) can0 13A#51003100000000B5
(1740126101.338639) can0 13F#0000000000000032
(1740126101.338825) can0 17C#0000000030002078
(1740126101.339103) can0 188#070080010025
(1740126101.341942) can0 18E#00004D
(1740126101.346493) can0 164#000080259600002D
(1740126101.347876) can0 158#000000000000000A
(1740126101.348105) can0 136#000200000000000C
(1740126101.348369) can0 13A#5100310000000088
(1740126101.348642) can0 13F#0000000000000005
(1740126101.348830) can0 17C#000000003000204B
(1740126101.349046) can0 188#070080010034
(1740126101.349194) can0 1DC#0200000C
(1740126101.351094) can0 039#00A2
(1740126101.351975) can0 18E#00005C
(1740126101.354661) can0 1A4#000000C00000002B
(1740126101.354686) can0 1B0#00000000000066
(1740126101.354876) can0 1D0#000000000000000A
(1740126101.356468) can0 164#000080259600003C
(1740126101.356627) can0 305#8017
(1740126101.358125) can0 158#0000000000000019
(1740126101.358149) can0 136#000200000000001B
(1740126101.358430) can0 13A#5100310000000097
(1740126101.358592) can0 13F#0000000000000014
(1740126101.358856) can0 17C#000000003000205A
(1740126101.359104) can0 188#070080010007
(1740126101.362070) can0 18E#00006B
(1740126101.366465) can0 164#000080259600000F
(1740126101.367463) can0 039#00B1
(1740126101.367877) can0 158#0000000000000028
(1740126101.368151) can0 136#000200000000002A
(1740126101.368407) can0 13A#51003100000000A6
(1740126101.368667) can0 13F#0000000000000023
(1740126101.368840) can0 17C#0000000030002069
(1740126101.369062) can0 188#070080010016
(1740126101.369274) can0 1DC#0200001B
(1740126101.371907) can0 18E#00007A
(1740126101.374485) can0 1A4#000000C00000003A
(1740126101.374693) can0 1B0#00000000000075
(1740126101.374886) can0 1D0#000000000000000A
(1740126101.376333) can0 164#000080259600001E
(1740126101.376579) can0 294#020C40043E9D000C
(1740126101.377873) can0 158#0000000000000037
(1740126101.378110) can0 136#0002000000000039
(1740126101.378405) can0 13A#51003100000000B5
(1740126101.378596) can0 13F#0000000000000032
(1740126101.378839) can0 17C#0000000030002078
(1740126101.379056) can0 188#070080010025
(1740126101.382085) can0 18E#00004D
(1740126101.384016) can0 039#0084
(1740126101.386374) can0 164#000080259700002C
(1740126101.387914) can0 158#000000000000000A
(1740126101.388167) can0 136#000200000000000C
(1740126101.388405) can0 13A#5100310000000088
(1740126101.388658) can0 13F#0000000000000005
(1740126101.388837) can0 17C#000000003000204B
(1740126101.389034) can0 188#070080010034
(1740126101.389261) can0 1DC#0200002A
(1740126101.391735) can0 18E#00005C
(1740126101.394725) can0 1A4#000000C00000000D
(1740126101.394750) can0 1B0#00000000000048
(1740126101.394934) can0 1D0#000000000000000A
(1740126101.396712) can0 164#000080259600003C
(1740126101.397936) can0 158#0000000000000019
(1740126101.398152) can0 136#000200000000001B
(1740126101.398415) can0 13A#5100310000000097
(1740126101.398668) can0 13F#0000000000000014
(1740126101.398910) can0 17C#000000003000205A
(1740126101.399119) can0 188#070080010007
(1740126101.400447) can0 039#0093
(1740126101.401816) can0 18E#00006B
(1740126101.406385) can0 164#000080259600000F
(1740126101.407929) can0 158#0000000000000028
(1740126101.408133) can0 136#000200000000002A
(1740126101.408328) can0 13A#51003100000000A6
(1740126101.408565) can0 13F#0000000000000023
(1740126101.408821) can0 17C#0000000030002069
(1740126101.409031) can0 188#070080010016
(1740126101.409194) can0 1DC#02000039
(1740126101.411859) can0 18E#00007A
(1740126101.414415) can0 1A4#000000C00000001C
(1740126101.414635) can0 1B0#00000000000057
(1740126101.414920) can0 1D0#000000000000000A
(1740126101.416277) can0 164#000080259600001E
(1740126101.416515) can0 294#020C40043E9D001B
(1740126101.416931) can0 039#00A2
(1740126101.417888) can0 158#0000000000000037
(1740126101.418086) can0 136#0002000000000039
(1740126101.418327) can0 13A#51003100000000B5
(1740126101.418715) can0 13F#0000000000000032
(1740126101.418853) can0 17C#0000000030002078
(1740126101.419044) can0 188#070080010025
(1740126101.421881) can0 18E#00004D
(1740126101.426365) can0 164#000080259700002C
(1740126101.427982) can0 158#000000000000000A
(1740126101.428140) can0 136#000200000000000C
(1740126101.428330) can0 13A#5100310000000088
(1740126101.428664) can0 13F#0000000000000005
(1740126101.428845) can0 17C#000000003000204B
(1740126101.429104) can0 188#070080010034
(1740126101.429185) can0 1DC#0200000C
(1740126101.429428) can0 320#000003
(1740126101.429589) can0 324#2323000000000E07
(1740126101.429777) can0 37C#0000000002
(1740126101.431879) can0 18E#00005C
(1740126101.433698) can0 039#00B1
(1740126101.434489) can0 1A4#000000C00000002B
(1740126101.434719) can0 1B0#00000000000066
(1740126101.435018) can0 1D0#000000000000000A
(1740126101.436710) can0 164#000080259600003C
(1740126101.436753) can0 309#000000000000002A
(1740126101.437070) can0 428#000000043E9D0F
(1740126101.437181) can0 42A#0008
(1740126101.437525) can0 405#000000000000020D
(1740126101.437877) can0 158#0000000000000019
(1740126101.438104) can0 136#000200000000001B
(1740126101.438425) can0 13A#5100310000000097
(1740126101.438600) can0 13F#0000000000000014
(1740126101.438812) can0 17C#000000003000205A
(1740126101.439060) can0 188#07000001000F
(1740126101.441834) can0 18E#00006B
(1740126101.446668) can0 164#000080259600000F
(1740126101.447919) can0 158#0000000000000028
(1740126101.448162) can0 136#000200000000002A
(1740126101.448405) can0 13A#51003100000000A6
(1740126101.448620) can0 13F#0000000000000023
(1740126101.448843) can0 17C#0000000030002069
(1740126101.449022) can0 188#07000001001E
(1740126101.449186) can0 1DC#0200001B
(1740126101.450015) can0 039#0084
(1740126101.451904) can0 18E#00007A
(1740126101.454494) can0 1A4#000000C00000003A
(1740126101.454736) can0 1B0#00000000000075
(1740126101.455006) can0 1D0#000000000000000A
(1740126101.456457) can0 164#000080259600001E
(1740126101.456706) can0 294#020C40043E9D002A
(1740126101.458130) can0 158#0000000000000037
(1740126101.458153) can0 136#0002000000000039
(1740126101.458381) can0 13A#51003100000000B5
(1740126101.458657) can0 13F#0000000000000032
(1740126101.458814) can0 17C#0000000030002078
(1740126101.459097) can0 188#07000001002D
(1740126101.460972) can0 305#8026
(1740126101.461893) can0 18E#00004D
(1740126101.466709) can0 164#000080259600002D
(1740126101.466733) can0 039#0093
(1740126101.467920) can0 158#000000000000000A
(1740126101.468138) can0 136#000200000000000C
(1740126101.468376) can0 13A#5100310000000088
(1740126101.468654) can0 13F#0000000000000005
(1740126101.468816) can0 17C#000000003000204B
(1740126101.469096) can0 188#07000001003C
(1740126101.469249) can0 1DC#0200002A
(1740126101.471886) can0 18E#00005C
(1740126101.474500) can0 1A4#000000C00000000D
(1740126101.474728) can0 1B0#00000000000048
(1740126101.474997) can0 1D0#000000000000000A
(1740126101.476395) can0 164#000080259600003C
(1740126101.477936) can0 158#0000000000000019
(1740126101.478139) can0 136#000200000000001B
(1740126101.478397) can0 13A#5100310000000097
(1740126101.478651) can0 13F#0000000000000014
(1740126101.478808) can0 17C#000000003000205A
(1740126101.479107) can0 188#07000001000F
(1740126101.481820) can0 18E#00006B
(1740126101.482991) can0 039#00A2
(1740126101.486495) can0 164#000080259600000F
(1740126101.487912) can0 158#0000000000000028
(1740126101.488144) can0 136#000200000000002A
(1740126101.488380) can0 13A#51003100000000A6
(1740126101.488587) can0 13F#0000000000000023
(1740126101.488808) can0 17C#0000000030002069
(1740126101.489092) can0 188#07000001001E
(1740126101.489261) can0 1DC#02000039
(1740126101.492200) can0 18E#00007A
(1740126101.494516) can0 1A4#000000C00000001C
