(1740508850.773440) can0 039#0039
(1740508850.774886) can0 164#00000017AB00001F
(1740508850.775158) can0 294#000C40043ECA001D
(1740508850.777782) can0 158#0000027600000038
(1740508850.778015) can0 188#000000010024
(1740508850.778361) can0 136#000200000000002A
(1740508850.778621) can0 13A#2C003100000000AE
(1740508850.778890) can0 13F#0000000000000023
(1740508850.779149) can0 17C#000002BC30002060
(1740508850.779248) can0 18E#00011F
(1740508850.779413) can0 1DC#0202BC30
(1740508850.784361) can0 164#00000017AA00002F
(1740508850.785295) can0 1A4#0000000000000009
(1740508850.785541) can0 1B0#00000000000048
(1740508850.785721) can0 1D0#000000000000000A
(1740508850.787813) can0 158#000002750000000C
(1740508850.787952) can0 188#000000010033
(1740508850.788430) can0 136#0002000000000039
(1740508850.788678) can0 13A#2C003100000000BD
(1740508850.788872) can0 13F#0000000000000032
(1740508850.789150) can0 17C#000002BC3000207F
(1740508850.789244) can0 18E#00012E
(1740508850.790527) can0 039#000C
(1740508850.794475) can0 164#00000017AB00003D
(1740508850.796478) can0 305#8008
(1740508850.797781) can0 158#000002750000001B
(1740508850.797936) can0 188#000000010006
(1740508850.798418) can0 136#000200000000000C
(1740508850.798679) can0 13A#2C00310000000080
(1740508850.798877) can0 13F#0000000000000005
(1740508850.799224) can0 17C#000002BC30002042
(1740508850.799248) can0 18E#00033B
(1740508850.799511) can0 1DC#0202BC03
(1740508850.804743) can0 164#00000017AB000000
(1740508850.805223) can0 1A4#0000000000000018
(1740508850.805489) can0 1B0#00000000000057
(1740508850.805729) can0 1D0#000000000000000A
(1740508850.808026) can0 158#000002750000002A
(1740508850.808074) can0 188#000000010015
(1740508850.808410) can0 136#000200000000001B
(1740508850.808500) can0 039#001B
(1740508850.808756) can0 13A#2C0031000000009F
(1740508850.809015) can0 13F#0000000000000014
(1740508850.809244) can0 17C#000002BC30002051
(1740508850.809401) can0 18E#000100
(1740508850.814760) can0 164#00000017AB00001F
(1740508850.814809) can0 294#000C40043ECA002C
(1740508850.815059) can0 309#0000000000000039
(1740508850.817794) can0 158#0000027500000039
(1740508850.817919) can0 188#000000010024
(1740508850.818370) can0 136#000200000000002A
(1740508850.818635) can0 13A#2C003100000000AE
(1740508850.818873) can0 13F#0000000000000023
(1740508850.819105) can0 17C#000002BC30002060
(1740508850.819262) can0 18E#00011F
(1740508850.819423) can0 1DC#0202BC12
(1740508850.824277) can0 164#00000017AA00002F
(1740508850.825224) can0 1A4#0000000000000027
(1740508850.825495) can0 1B0#00000000000066
(1740508850.825722) can0 1D0#000000000000000A
(1740508850.826496) can0 039#002A
(1740508850.827779) can0 158#000002750000000C
(1740508850.827915) can0 188#000000010033
(1740508850.828364) can0 136#0002000000000039
(1740508850.828589) can0 13A#2C003100000000BD
(1740508850.828842) can0 13F#0000000000000032
(1740508850.829089) can0 17C#000002BC3000207F
(1740508850.829241) can0 18E#00032C
(1740508850.834458) can0 164#00000017AB00003D
(1740508850.837749) can0 158#000002750000001B
(1740508850.837974) can0 188#000000010006
(1740508850.838397) can0 136#000200000000000C
(1740508850.838644) can0 13A#2C00310000000080
(1740508850.838825) can0 13F#0000000000000005
(1740508850.839090) can0 17C#000002BC30002042
(1740508850.839220) can0 18E#00013D
(1740508850.839486) can0 1DC#0202BC21
(1740508850.844209) can0 164#00000017AB000000
(1740508850.844473) can0 039#0039
(1740508850.845210) can0 1A4#0000000000000036
(1740508850.845442) can0 1B0#00000000000075
(1740508850.845698) can0 1D0#000000000000000A
(1740508850.847770) can0 158#0000027600000029
(1740508850.847942) can0 188#000000010015
(1740508850.848393) can0 136#000200000000001B
(1740508850.848575) can0 13A#2C0031000000009F
(1740508850.848819) can0 13F#0000000000000014
(1740508850.849070) can0 17C#000002BC30002051
(1740508850.849222) can0 18E#000100
(1740508850.854587) can0 164#00000017AB00001F
(1740508850.854633) can0 294#000C40043ECA003B
(1740508850.857932) can0 158#0000027600000038
(1740508850.857958) can0 188#000000010024
(1740508850.858389) can0 136#000200000000002A
(1740508850.858607) can0 13A#2C003100000000AE
(1740508850.858861) can0 13F#0000000000000023
(1740508850.859157) can0 17C#000002BC30002060
(1740508850.859249) can0 18E#00031D
(1740508850.859484) can0 1DC#0202BC30
(1740508850.859554) can0 320#000030
(1740508850.859845) can0 324#6A350E0C0000003A
(1740508850.860049) can0 37C#000000003F
(1740508850.860257) can0 40C#0000000004000013
(1740508850.860459) can0 454#00F615
(1740508850.860625) can0 465#64644242282814
(1740508850.862382) can0 039#000C
(1740508850.864305) can0 164#00000017AA00002F
(1740508850.865228) can0 1A4#0000000000000009
(1740508850.865699) can0 1B0#00000000000048
(1740508850.865732) can0 1D0#000000000000000A
(1740508850.867712) can0 158#000002760000000B
(1740508850.867930) can0 188#000000010033
(1740508850.868368) can0 136#0002000000000039
(1740508850.868625) can0 13A#2C003100000000BD
(1740508850.868889) can0 13F#0000000000000032
(1740508850.869103) can0 17C#000002BC3000207F
(1740508850.869232) can0 18E#00012E
(1740508850.874979) can0 164#00000017AB00003D
(1740508850.877885) can0 158#000002750000001B
(1740508850.877930) can0 188#000000010006
(1740508850.878404) can0 136#000200000000000C
(1740508850.878653) can0 13A#2C00310000000080
(1740508850.878901) can0 13F#00000000FFE20007
(1740508850.879090) can0 17C#000002BF3000204F
(1740508850.879302) can0 18E#00013D
(1740508850.879453) can0 1DC#0202BF00
(1740508850.879545) can0 039#001B
(1740508850.884378) can0 164#00000017AB000000
(1740508850.885302) can0 1A4#0000000000000018
(1740508850.885459) can0 1B0#00000000000057
(1740508850.885714) can0 1D0#000000000000000A
(1740508850.887820) can0 158#000002750000002A
(1740508850.887939) can0 188#000000010015
(1740508850.888394) can0 136#000200000000001B
(1740508850.888653) can0 13A#2C0031000000009F
(1740508850.888862) can0 13F#0000000000000014
(1740508850.889149) can0 17C#000002BF3000205E
(1740508850.889216) can0 18E#00030E
(1740508850.894464) can0 164#00000017AB00001F
(1740508850.894630) can0 294#000C40043ECA000E
(1740508850.896568) can0 039#002A
(1740508850.897768) can0 158#0000027500000039
(1740508850.897929) can0 188#000000010024
(1740508850.898382) can0 136#000200000000002A
(1740508850.898614) can0 13A#2C003100000000AE
(1740508850.898938) can0 13F#0000000000000023
(1740508850.899191) can0 17C#000002BF3000206D
(1740508850.899244) can0 18E#00011F
(1740508850.899417) can0 1DC#0202BF1F
(1740508850.902540) can0 305#8017
(1740508850.904321) can0 164#00000017AA00002F
(1740508850.905311) can0 1A4#0000000000000027
(1740508850.905697) can0 1B0#00000000000066
(1740508850.905772) can0 1D0#000000000000000A
(1740508850.907822) can0 158#000002760000000B
(1740508850.907914) can0 188#000000010033
(1740508850.908395) can0 136#0002000000000039
(1740508850.908597) can0 13A#2C003100000000BD
(1740508850.908865) can0 13F#0000000000000032
(1740508850.909100) can0 17C#000002BF3000207C
(1740508850.909248) can0 18E#00012E
(1740508850.914441) can0 164#00000017AB00003D
(1740508850.914513) can0 039#0039
(1740508850.914797) can0 309#000000000000000C
(1740508850.915035) can0 428#000000043ECA2D
(1740508850.915222) can0 42A#0026
(1740508850.915517) can0 405#0000040000000029
(1740508850.917721) can0 158#000002760000001A
(1740508850.917914) can0 188#000000010006
(1740508850.918325) can0 136#000200000000000C
(1740508850.918583) can0 13A#2C00310000000080
(1740508850.918851) can0 13F#00000000FFCE000D
(1740508850.919088) can0 17C#000002C430002049
(1740508850.919240) can0 18E#00033B
(1740508850.919400) can0 1DC#0202C428
(1740508850.924408) can0 164#00000017AA000001
(1740508850.925313) can0 1A4#0000000000000036
(1740508850.925475) can0 1B0#00000000000075
(1740508850.925723) can0 1D0#000000000000000A
(1740508850.927827) can0 158#0000027600000029
(1740508850.927931) can0 188#000000010015
(1740508850.928369) can0 136#000200000000001B
(1740508850.928609) can0 13A#2C0031000000009F
(1740508850.928843) can0 13F#0000000000000014
(1740508850.929097) can0 17C#000002C430002058
(1740508850.929225) can0 18E#000001
(1740508850.932568) can0 039#000C
(1740508850.934575) can0 164#00000017AA000010
(1740508850.934822) can0 294#000C40043ECA001D
(1740508850.937780) can0 158#0000027700000037
(1740508850.937921) can0 188#000000010024
(1740508850.938426) can0 136#000200000000002A
(1740508850.938597) can0 13A#2C003100000000AE
(1740508850.938908) can0 13F#0000000000000023
(1740508850.939107) can0 17C#000002C430002067
(1740508850.939260) can0 18E#000010
(1740508850.939477) can0 1DC#0202C437
(1740508850.944371) can0 164#00000017AB00002E
(1740508850.945266) can0 1A4#0000000000000009
(1740508850.945465) can0 1B0#00000000000048
(1740508850.945728) can0 1D0#000000000000000A
(1740508850.947813) can0 158#0000027800000009
(1740508850.947920) can0 188#000000010033
(1740508850.948362) can0 136#0002000000000039
(1740508850.948599) can0 13A#2C003100000000BD
(1740508850.948851) can0 13F#0000000000000032
(1740508850.949103) can0 17C#000002C430002076
(1740508850.949225) can0 18E#00012E
(1740508850.949599) can0 039#001B
(1740508850.954437) can0 164#00000017AB00003D
(1740508850.957794) can0 158#0000027900000017
(1740508850.957925) can0 188#000000010006
(1740508850.958423) can0 136#000200000000000C
(1740508850.958605) can0 13A#2C00310000000080
(1740508850.958914) can0 13F#00000000FFEC000D
(1740508850.959098) can0 17C#000002C630002047
(1740508850.959284) can0 18E#00003E
(1740508850.959415) can0 1DC#0202C608
(1740508850.959559) can0 320#000003
(1740508850.959814) can0 324#6A350E0C0000000D
(1740508850.960047) can0 37C#0000000002
(1740508850.964299) can0 164#00000017AB000000
(1740508850.965352) can0 1A4#0000000000000018
(1740508850.965516) can0 1B0#00000000000057
(1740508850.965789) can0 1D0#000000000000000A
(1740508850.966598) can0 039#002A
(1740508850.967778) can0 158#0000027900000026
(1740508850.967922) can0 188#000000010015
(1740508850.968401) can0 136#000200000000001B
(1740508850.968604) can0 13A#2C0031000000009F
(1740508850.968838) can0 13F#0000000000000014
(1740508850.969101) can0 17C#000002C630002056
(1740508850.969218) can0 18E#000001
(1740508850.974866) can0 164#00000017AB00001F
(1740508850.975134) can0 294#000C40043ECA002C
(1740508850.977741) can0 158#0000027A00000034
(1740508850.977931) can0 188#000000010024
(1740508850.978350) can0 136#000200000000002A
(1740508850.978602) can0 13A#2C003100000000AE
(1740508850.978837) can0 13F#0000000000000023
(1740508850.979080) can0 17C#000002C630002065
(1740508850.979242) can0 18E#00011F
(1740508850.979401) can0 1DC#0202C617
(1740508850.983543) can0 039#0039
(1740508850.984296) can0 164#00000017AB00002E
(1740508850.985264) can0 1A4#0000000000000027
(1740508850.985510) can0 1B0#00000000000066
(1740508850.985782) can0 1D0#000000000000000A
(1740508850.987739) can0 158#0000027B00000006
(1740508850.987974) can0 188#000000010033
(1740508850.988351) can0 136#0002000000000039
(1740508850.988575) can0 13A#2C003100000000BD
(1740508850.988843) can0 13F#0000000000000032
(1740508850.989071) can0 17C#000002C630002074
(1740508850.989230) can0 18E#00002F
(1740508850.994403) can0 164#00000017AB00003D
(1740508850.997771) can0 158#0000027C00000014
(1740508850.997955) can0 188#000000010006
(1740508850.998352) can0 136#000200000000000C
(1740508850.998575) can0 13A#2C00310000000080
(1740508850.998849) can0 13F#0000000000000005
(1740508850.999198) can0 17C#000002C630002047
(1740508850.999246) can0 18E#00003E
(1740508850.999385) can0 1DC#0202C626
(1740508851.000536) can0 039#000C
(1740508851.004285) can0 164#00000017AB000000
(1740508851.005257) can0 1A4#0000000000000036
(1740508851.005504) can0 1B0#00000000000075
(1740508851.005762) can0 1D0#000000000000000A
(1740508851.006425) can0 305#8026
(1740508851.007732) can0 158#0000027C00000023
(1740508851.007939) can0 188#000000010015
(1740508851.008348) can0 136#000200000000001B
(1740508851.008567) can0 13A#2C0031000000009F
(1740508851.008846) can0 13F#00000000FFF60011
(1740508851.009073) can0 17C#000002C730002055
(1740508851.009227) can0 18E#000100
(1740508851.014534) can0 164#00000017AB00001F
(1740508851.014851) can0 294#000C40043ECA003B
(1740508851.015087) can0 309#000000000000001B
(1740508851.017566) can0 039#001B
(1740508851.017786) can0 158#0000027C00000032
(1740508851.017988) can0 188#000000010024
(1740508851.018358) can0 136#000200000000002A
(1740508851.018568) can0 13A#2C003100000000AE
(1740508851.018844) can0 13F#0000000000000023
(1740508851.019078) can0 17C#000002C730002064
(1740508851.019227) can0 18E#000010
(1740508851.019384) can0 1DC#0202C734
(1740508851.021442) can0 18DA11F1#0322261000000000
(1740508851.021784) can0 18DAF111#1039622610FFFDFF
(1740508851.024367) can0 164#00000017AB00002E
(1740508851.025270) can0 1A4#0000000000000009
(1740508851.025505) can0 1B0#00000000000048
(1740508851.025769) can0 1D0#000000000000000A
(1740508851.026924) can0 18DA11F1#3000000000000000
(1740508851.027018) can0 18DAF111#217DE0000B1C2508
(1740508851.027323) can0 18DAF111#22396AAD352C1A93
(1740508851.027605) can0 18DAF111#23640049009C8E66
(1740508851.027859) can0 158#0000027D00000004
(1740508851.028041) can0 188#000000010033
(1740508851.028325) can0 18DAF111#24029B3400008000
(1740508851.028560) can0 136#0002000000000039
(1740508851.028810) can0 13A#2C003100000000BD
(1740508851.029058) can0 13F#0000000000000032
(1740508851.029324) can0 17C#000002C730002073
(1740508851.029461) can0 18E#00002F
(1740508851.029724) can0 18DAF111#250F083F00E800D6
(1740508851.030038) can0 18DAF111#2625002F00000000
(1740508851.030345) can0 18DAF111#2700000000000000
(1740508851.030638) can0 18DAF111#2800005555555555
(1740508851.034384) can0 164#00000017AB00003D
(1740508851.035473) can0 039#002A
(1740508851.037763) can0 158#0000027E00000012
(1740508851.037927) can0 188#000000010006
(1740508851.038357) can0 136#000200000000000C
(1740508851.038610) can0 13A#2C00310000000080
(1740508851.038840) can0 13F#0000000000000005
(1740508851.039079) can0 17C#000002C730002046
(1740508851.039244) can0 18E#00013D
(1740508851.039386) can0 1DC#0202C707
(1740508851.044291) can0 164#00000017AA000001
(1740508851.045291) can0 1A4#0000000000000018
(1740508851.045533) can0 1B0#00000000000057
(1740508851.045807) can0 1D0#000000000000000A
(1740508851.047737) can0 158#0000027E00000021
(1740508851.047982) can0 188#000000010015
(1740508851.048316) can0 136#000200000000001B
(1740508851.048755) can0 13A#2C0031000000009F
(1740508851.048827) can0 13F#0000000000000014
(1740508851.049063) can0 17C#000002C730002055
(1740508851.049218) can0 18E#000001
(1740508851.053441) can0 039#0039
(1740508851.054388) can0 164#00000017AB00001F
(1740508851.054692) can0 294#000C40043ECA000E
(1740508851.057744) can0 158#000002800000003D
(1740508851.058003) can0 188#000000010024
(1740508851.058385) can0 136#000200000000002A
(1740508851.058591) can0 13A#2C003100000000AE
(1740508851.058987) can0 13F#0000000000000023
(1740508851.059107) can0 17C#000002C730002064
(1740508851.059239) can0 18E#000010
(1740508851.059387) can0 1DC#0202C716
(1740508851.059537) can0 320#000012
(1740508851.059809) can0 324#6A350E0C0000001C
(1740508851.059985) can0 37C#0000000011
(1740508851.064311) can0 164#00000017AA00002F
(1740508851.065307) can0 1A4#0000000000000027
(1740508851.065536) can0 1B0#00000000000066
(1740508851.065802) can0 1D0#000000000000000A
(1740508851.067734) can0 158#0000028000000000
(1740508851.067927) can0 188#000000010033
(1740508851.068326) can0 136#0002000000000039
(1740508851.068563) can0 13A#2C003100000000BD
(1740508851.068865) can0 13F#0000000000000032
(1740508851.069065) can0 17C#000002C730002073
(1740508851.069219) can0 18E#00012E
(1740508851.070432) can0 039#000C
(1740508851.074853) can0 164#00000017AB00003D
(1740508851.077740) can0 158#000002800000001F
(1740508851.077942) can0 188#000000010006
(1740508851.078357) can0 136#000200000000000C
(1740508851.078600) can0 13A#2C00310000000080
(1740508851.078834) can0 13F#0000000000000005
(1740508851.079154) can0 17C#000002C730002046
(1740508851.079243) can0 18E#00003E
(1740508851.079404) can0 1DC#0202C725
(1740508851.084296) can0 164#00000017AB000000
(1740508851.085264) can0 1A4#0000000000000036
(1740508851.085509) can0 1B0#00000000000075
(1740508851.085781) can0 1D0#000000000000000A
(1740508851.087415) can0 039#001B
(1740508851.087736) can0 158#000002810000002D
(1740508851.087920) can0 188#000000010015
(1740508851.088333) can0 136#000200000000001B
(1740508851.088558) can0 13A#2C0031000000009F
(1740508851.088819) can0 13F#00000000FFEC001C
(1740508851.089058) can0 17C#000002C930002053
(1740508851.089214) can0 18E#000001
(1740508851.094478) can0 164#00000017AA000010
(1740508851.094694) can0 294#000C40043ECA001D
(1740508851.097723) can0 158#000002820000003B
(1740508851.097913) can0 188#000000010024
(1740508851.098333) can0 136#000200000000002A
(1740508851.098555) can0 13A#2C003100000000AE
(1740508851.098815) can0 13F#0000000000000023
(1740508851.099063) can0 17C#000002C930002062
(1740508851.099289) can0 18E#00011F
(1740508851.099343) can0 1DC#0202C932
(1740508851.104215) can0 164#00000017AA00002F
(1740508851.104500) can0 039#002A
(1740508851.105227) can0 1A4#0000000000000009
(1740508851.105479) can0 1B0#00000000000048
(1740508851.105767) can0 1D0#000000000000000A
(1740508851.107693) can0 158#000002830000000D
(1740508851.107917) can0 188#000000010033
(1740508851.108284) can0 136#0002000000000039
(1740508851.108530) can0 13A#2C003100000000BD
(1740508851.108781) can0 13F#0000000000000032
(1740508851.109031) can0 17C#000002C930002071
(1740508851.109182) can0 18E#00002F
(1740508851.110451) can0 305#8035
(1740508851.114518) can0 164#00000017AB00003D
(1740508851.114808) can0 309#000000000000002A
(1740508851.117740) can0 158#000002830000001C
(1740508851.117907) can0 188#000000010006
(1740508851.118328) can0 136#000200000000000C
(1740508851.118524) can0 13A#2C00310000000080
(1740508851.118774) can0 13F#0000000000000005
(1740508851.119066) can0 17C#000002C930002044
(1740508851.119179) can0 18E#00003E
(1740508851.119351) can0 1DC#0202C905
(1740508851.122434) can0 039#0039
(1740508851.124236) can0 164#00000017AB000000
(1740508851.125280) can0 1A4#0000000000000018
(1740508851.125502) can0 1B0#00000000000057
(1740508851.125763) can0 1D0#000000000000000A
(1740508851.127685) can0 158#000002830000002B
(1740508851.127902) can0 188#000000010015
(1740508851.128313) can0 136#000200000000001B
(1740508851.128528) can0 13A#2C0031000000009F
(1740508851.128778) can0 13F#00000000000A001A
(1740508851.129004) can0 17C#000002C830002054
(1740508851.129177) can0 18E#000100
(1740508851.134420) can0 164#00000017AA000010
(1740508851.134652) can0 294#000C40043ECA002C
(1740508851.137724) can0 158#000002830000003A
(1740508851.137903) can0 188#000000010024
(1740508851.138329) can0 136#000200000000002A
(1740508851.138551) can0 13A#2C003100000000AE
(1740508851.138800) can0 13F#0000000000000023
(1740508851.139088) can0 17C#000002C830002063
(1740508851.139232) can0 18E#000010
(1740508851.139370) can0 1DC#0202C815
(1740508851.140454) can0 039#000C
(1740508851.144266) can0 164#00000017AB00002E
(1740508851.145254) can0 1A4#0000000000000027
(1740508851.145496) can0 1B0#00000000000066
(1740508851.145753) can0 1D0#000000000000000A
(1740508851.147714) can0 158#000002830000000D
(1740508851.147934) can0 188#000000010033
(1740508851.148277) can0 136#0002000000000039
(1740508851.148525) can0 13A#2C013100000000BC
(1740508851.148781) can0 13F#0000000000000032
(1740508851.149005) can0 17C#000002C830002072
(1740508851.149181) can0 18E#00002F
(1740508851.154420) can0 164#00000017AB00003D
(1740508851.157695) can0 039#001B
(1740508851.157721) can0 158#000002830000001C
(1740508851.157984) can0 188#000000010006
(1740508851.158376) can0 136#000200000000000C
(1740508851.158613) can0 13A#2C0131000000008F
(1740508851.158806) can0 13F#0000000000000005
(1740508851.159086) can0 17C#000002C830002045
(1740508851.159201) can0 18E#00013D
(1740508851.159377) can0 1DC#0202C824
(1740508851.159586) can0 320#000021
(1740508851.159772) can0 324#6A350E0C0000002B
(1740508851.159942) can0 37C#0000000020
(1740508851.160215) can0 40C#014A484D46443124
(1740508851.160321) can0 454#00F624
(1740508851.160546) can0 465#64644242282823
(1740508851.164347) can0 164#00000017AA000001
(1740508851.165352) can0 1A4#0000000000000036
(1740508851.165542) can0 1B0#00000000000075
(1740508851.165820) can0 1D0#000000000000000A
(1740508851.167782) can0 158#000002830000002B
(1740508851.167987) can0 188#000000010015
(1740508851.168323) can0 136#000200000000001B
(1740508851.168564) can0 13A#2C0131000000009E
(1740508851.168873) can0 13F#000000000014001F
(1740508851.169117) can0 17C#000002C630002056
(1740508851.169246) can0 18E#000001
(1740508851.174893) can0 039#002A
(1740508851.174920) can0 164#00000017AA000010
(1740508851.175173) can0 294#000C40043ECA003B
(1740508851.177819) can0 158#000002830000003A
(1740508851.178005) can0 188#000000010024
(1740508851.178342) can0 136#000200000000002A
(1740508851.178577) can0 13A#2C013100000000AD
(1740508851.178832) can0 13F#0000000000000023
(1740508851.179078) can0 17C#000002C630002065
(1740508851.179255) can0 18E#000010
(1740508851.179362) can0 1DC#0202C635
(1740508851.184574) can0 164#00000017AA00002F
(1740508851.185362) can0 1A4#0000000000000009
(1740508851.185613) can0 1B0#00000000000048
(1740508851.185859) can0 1D0#000000000000000A
(1740508851.187834) can0 158#000002830000000D
(1740508851.187919) can0 188#000000010033
(1740508851.188441) can0 136#0002000000000039
(1740508851.188572) can0 13A#2C013100000000BC
(1740508851.188808) can0 13F#0000000000000032
(1740508851.189054) can0 17C#000002C630002074
(1740508851.189205) can0 18E#00012E
(1740508851.191607) can0 039#0039
(1740508851.194384) can0 164#00000017AA00003E
(1740508851.197749) can0 158#000002830000001C
(1740508851.197951) can0 188#000000010006
(1740508851.198305) can0 136#000200000000000C
(1740508851.198562) can0 13A#2C0131000000008F
(1740508851.198805) can0 13F#0000000000000005
(1740508851.199026) can0 17C#000002C630002047
(1740508851.199166) can0 18E#00003E
(1740508851.199348) can0 1DC#0202C608
(1740508851.204245) can0 164#00000017AB000000
(1740508851.205327) can0 1A4#0000000000000018
(1740508851.205551) can0 1B0#00000000000057
(1740508851.205774) can0 1D0#000000000000000A
(1740508851.207749) can0 158#000002830000002B
(1740508851.207962) can0 188#000000010015
(1740508851.208304) can0 136#000200000000001B
(1740508851.208561) can0 13A#2C0231000000009D
(1740508851.208793) can0 13F#0000000000000014
(1740508851.209026) can0 17C#000002C630002056
(1740508851.209169) can0 18E#000001
(1740508851.209439) can0 039#000C
(1740508851.214648) can0 164#00000017AB00001F
(1740508851.214676) can0 294#000C40043ECA000E
(1740508851.215012) can0 309#0000000000000039
(1740508851.215229) can0 428#000000043ECA3C
(1740508851.215372) can0 42A#0035
(1740508851.215491) can0 305#8008
(1740508851.215768) can0 405#0000040000000038
(1740508851.217701) can0 158#000002820000003B
(1740508851.217890) can0 188#000000010024
(1740508851.218292) can0 136#000200000000002A
(1740508851.218540) can0 13A#2C023100000000AC
(1740508851.218789) can0 13F#000000000014002E
(1740508851.219016) can0 17C#000002C430002067
(1740508851.219166) can0 18E#00011F
(1740508851.219341) can0 1DC#0202C419
(1740508851.224347) can0 164#00000017AB00002E
(1740508851.225337) can0 1A4#0000000000000027
(1740508851.225540) can0 1B0#00000000000066
(1740508851.225967) can0 1D0#000000000000000A
(1740508851.227074) can0 039#001B
(1740508851.227711) can0 158#000002820000000E
(1740508851.227920) can0 188#000000010033
(1740508851.228350) can0 136#0002000000000039
(1740508851.228603) can0 13A#2C033100000000BA
(1740508851.228784) can0 13F#0000000000000032
(1740508851.229108) can0 17C#000002C430002076
(1740508851.229152) can0 18E#00002F
(1740508851.234659) can0 164#00000017AB00003D
(1740508851.237953) can0 158#000002820000001D
(1740508851.237979) can0 188#000000010006
(1740508851.238350) can0 136#000200000000000C
(1740508851.238594) can0 13A#2C0331000000008D
(1740508851.238850) can0 13F#0000000000000005
(1740508851.239071) can0 17C#000002C430002049
(1740508851.239196) can0 18E#00003E
(1740508851.239434) can0 1DC#0202C428
(1740508851.243729) can0 039#002A
(1740508851.244369) can0 164#00000017AB000000
(1740508851.245383) can0 1A4#0000000000000036
(1740508851.245521) can0 1B0#00000000000075
(1740508851.245857) can0 1D0#000000000000000A
(1740508851.248035) can0 158#000002800000002E
(1740508851.248063) can0 188#000000010015
(1740508851.248353) can0 136#000200000000001B
(1740508851.248584) can0 13A#2C0331000000009C
(1740508851.248801) can0 13F#0000000000000014
(1740508851.249078) can0 17C#000002C430002058
(1740508851.249177) can0 18E#000100
(1740508851.254643) can0 164#00000017AA000010
(1740508851.254670) can0 294#000C40043ECA001D
(1740508851.257822) can0 158#000002800000003D
(1740508851.257923) can0 188#000000010024
(1740508851.258376) can0 136#000200000000002A
(1740508851.258633) can0 13A#2C043100000000AA
(1740508851.258824) can0 13F#00000000000A0029
(1740508851.259107) can0 17C#000002C330002068
(1740508851.259202) can0 18E#000010
(1740508851.259423) can0 1DC#0202C338
(1740508851.259514) can0 320#000030
(1740508851.259758) can0 324#6A350E0E00000038
(1740508851.259997) can0 37C#000000003F
(1740508851.261731) can0 039#0039
(1740508851.264365) can0 164#00000017AA00002F
(1740508851.265418) can0 1A4#0000000000000009
(1740508851.265606) can0 1B0#00000000000048
(1740508851.265914) can0 1D0#000000000000000A
(1740508851.268085) can0 158#0000027F00000002
(1740508851.268113) can0 188#000000010033
(1740508851.268335) can0 136#0002000000000039
(1740508851.268602) can0 13A#2C063100000000B7
(1740508851.268868) can0 13F#0000000000000032
(1740508851.269057) can0 17C#000002C330002077
(1740508851.269265) can0 18E#00002F
(1740508851.275332) can0 164#00000017AB00003D
(1740508851.278010) can0 158#0000027F00000011
(1740508851.278037) can0 188#000000010006
(1740508851.278367) can0 136#000200000000000C
(1740508851.278629) can0 13A#2C08310000000088
(1740508851.278679) can0 039#000C
(1740508851.278999) can0 13F#0000000000000005
(1740508851.279184) can0 17C#000002C33000204A
(1740508851.279388) can0 18E#00013D
(1740508851.279495) can0 1DC#0202C30B
(1740508851.284364) can0 164#00000017AB000000
(1740508851.285360) can0 1A4#0000000000000018
(1740508851.285593) can0 1B0#00000000000057
(1740508851.285850) can0 1D0#000000000000000A
(1740508851.288197) can0 158#000002800000002E
(1740508851.288225) can0 188#000000010015
(1740508851.288277) can0 136#000200000000001B
(1740508851.288578) can0 13A#2C0A310000000095
(1740508851.288798) can0 13F#0000000000000014
(1740508851.289092) can0 17C#000002C330002059
(1740508851.289184) can0 18E#000001
(1740508851.294616) can0 164#00000017AA000010
(1740508851.294643) can0 294#000C40043ECA002C
(1740508851.296536) can0 039#001B
(1740508851.297815) can0 158#0000027F0000003F
(1740508851.298000) can0 188#000000010024
(1740508851.298321) can0 136#000200000000002A
(1740508851.298591) can0 13A#2C0E3100000000A0
(1740508851.298829) can0 13F#00000000000A0029
(1740508851.299039) can0 17C#000002C2B0002061
(1740508851.299262) can0 18E#000010
(1740508851.299356) can0 1DC#0202C21B
(1740508851.304395) can0 164#00000017AA00002F
(1740508851.305418) can0 1A4#0000000000000027
(1740508851.305638) can0 1B0#00000000000066
(1740508851.305843) can0 1D0#000000000000000A
(1740508851.307793) can0 158#0000027F00000002
(1740508851.307990) can0 188#000000010033
(1740508851.308305) can0 136#0002000001000038
(1740508851.308564) can0 13A#2C113100000000BB
(1740508851.308805) can0 13F#0000000000000032
(1740508851.309016) can0 17C#000002C2B0002070
(1740508851.309242) can0 18E#00012E
(1740508851.314716) can0 164#00000017AB00003D
(1740508851.314771) can0 039#002A
(1740508851.314879) can0 309#000000000000000C
(1740508851.317829) can0 158#0000027F00000011
(1740508851.318009) can0 188#000000010006
(1740508851.318304) can0 136#000200000200000A
(1740508851.318573) can0 13A#2C16310000000089
(1740508851.318826) can0 13F#0000000000000005
(1740508851.319050) can0 17C#000002C2B0002043
(1740508851.319242) can0 18E#00003E
(1740508851.319331) can0 1DC#0202C22A
(1740508851.320703) can0 305#8017
(1740508851.324467) can0 164#00000017AB000000
(1740508851.325417) can0 1A4#0000000000000036
(1740508851.325644) can0 1B0#00000000000075
(1740508851.325835) can0 1D0#000000000000000A
(1740508851.328006) can0 158#0000027F00000020
(1740508851.328033) can0 188#000000010015
(1740508851.328338) can0 136#0002000004000017
(1740508851.328555) can0 13A#2C1B310000000093
(1740508851.328839) can0 13F#0000000000000014
(1740508851.329058) can0 17C#000002C2B0002052
(1740508851.329202) can0 18E#000001
(1740508851.332708) can0 039#0039
(1740508851.334677) can0 164#00000017AB00001F
(1740508851.334704) can0 294#000C40043ECA003B
(1740508851.337810) can0 158#0000027E00000030
(1740508851.337985) can0 188#000000010024
(1740508851.338319) can0 136#0002000005000025
(1740508851.338565) can0 13A#2C203100000000AC
(1740508851.338833) can0 13F#0000000000000023
(1740508851.339042) can0 17C#000002C2B0002061
(1740508851.339196) can0 18E#00011F
(1740508851.339333) can0 1DC#0202C239
(1740508851.344313) can0 164#00000017AB00002E
(1740508851.345425) can0 1A4#0000000000000009
(1740508851.345567) can0 1B0#00000000000048
(1740508851.345866) can0 1D0#000000000000000A
(1740508851.347778) can0 158#0000027E00000003
(1740508851.347925) can0 188#000000010033
(1740508851.348347) can0 136#0002000007000032
(1740508851.348586) can0 13A#2C253100000000B6
(1740508851.348800) can0 13F#00000000000A0038
(1740508851.349027) can0 17C#000002C1B0002071
(1740508851.349188) can0 18E#00002F
(1740508851.349600) can0 039#000C
(1740508851.354532) can0 164#00000017AB00003D
(1740508851.357780) can0 158#0000027C00000014
(1740508851.357923) can0 188#000000010006
(1740508851.358371) can0 136#0002000008000004
(1740508851.358561) can0 13A#2C2A310000000084
(1740508851.358881) can0 13F#0000000000000005
(1740508851.359106) can0 17C#000002C1B0002044
(1740508851.359202) can0 18E#00003E
(1740508851.359360) can0 1DC#0202C10D
(1740508851.359586) can0 320#000003
(1740508851.359801) can0 324#6A350E0E0000000B
(1740508851.359946) can0 37C#0000000002
(1740508851.364436) can0 164#00000017AB000000
(1740508851.365413) can0 1A4#0000000000000018
(1740508851.365669) can0 1B0#00000000000057
(1740508851.365862) can0 1D0#000000000000000A
(1740508851.367534) can0 039#001B
(1740508851.367696) can0 158#0000027C00000023
(1740508851.367932) can0 188#000000010015
(1740508851.368332) can0 136#000200000B000010
(1740508851.368543) can0 13A#2C2F31000000009E
(1740508851.368800) can0 13F#0000000000000014
(1740508851.369016) can0 17C#000002C1B0002053
(1740508851.369171) can0 18E#000100
(1740508851.374923) can0 164#00000017AB00001F
(1740508851.375090) can0 294#000C40043ECA000E
(1740508851.378010) can0 158#0000027B00000033
(1740508851.378058) can0 188#000000010024
(1740508851.378284) can0 136#000200000D00002D
(1740508851.378560) can0 13A#2C343100000000A7
(1740508851.378825) can0 13F#0000000000000023
(1740508851.379031) can0 17C#000002C1B0002062
(1740508851.379177) can0 18E#000010
(1740508851.379347) can0 1DC#0202C11C
(1740508851.384633) can0 164#00000017AA00002F
(1740508851.384682) can0 039#002A
(1740508851.385417) can0 1A4#0000000000000027
(1740508851.385627) can0 1B0#00000000000066
(1740508851.385870) can0 1D0#000000000000000A
(1740508851.388012) can0 158#0000027A00000007
(1740508851.388059) can0 188#000000010033
(1740508851.388328) can0 136#0002000010000038
(1740508851.388555) can0 13A#2C393100000000B1
(1740508851.388794) can0 13F#000000000014003D
(1740508851.389033) can0 17C#000002BFB0002074
(1740508851.389178) can0 18E#00002F
(1740508851.394505) can0 164#00000017AB00003D
(1740508851.398226) can0 158#0000027A00000016
(1740508851.398286) can0 188#000000010006
(1740508851.398288) can0 18E#00003E
(1740508851.398562) can0 136#0002000012000009
(1740508851.398581) can0 13A#2C3D310000000080
(1740508851.398825) can0 13F#0000000000000005
(1740508851.399042) can0 17C#000002BFB0002047
(1740508851.399322) can0 1DC#0202BF2E
(1740508851.402751) can0 039#0039
(1740508851.404555) can0 164#00000017AB000000
(1740508851.405382) can0 1A4#0000000000000036
(1740508851.405640) can0 1B0#00000000000075
(1740508851.405844) can0 1D0#000000000000000A
(1740508851.407788) can0 158#0000027A00000025
(1740508851.408004) can0 188#000000010015
(1740508851.408304) can0 136#0002000014000016
(1740508851.408547) can0 13A#2C4031000000009B
(1740508851.408829) can0 13F#0000000000000014
(1740508851.409108) can0 17C#000002BFB0002056
(1740508851.409166) can0 18E#000100
(1740508851.414842) can0 164#00000017AB00001F
(1740508851.414869) can0 294#000C40043ECA001D
(1740508851.415048) can0 309#000000000000001B
(1740508851.417759) can0 158#0000027A00000034
(1740508851.417913) can0 188#000000010024
(1740508851.418283) can0 136#0002000015000024
(1740508851.418534) can0 13A#2C423100000000A8
(1740508851.418800) can0 13F#0000000000000023
(1740508851.419033) can0 17C#000002BFB0002065
(1740508851.419164) can0 18E#00011F
(1740508851.419353) can0 1DC#0202BF3D
(1740508851.419545) can0 039#000C
(1740508851.424308) can0 164#00000017AB00002E
(1740508851.425403) can0 1A4#0000000000000009
(1740508851.425470) can0 305#8026
(1740508851.425716) can0 1B0#00000000000048
(1740508851.425981) can0 1D0#000000000000000A
(1740508851.427785) can0 158#0000027A00000007
(1740508851.428026) can0 188#000000010033
(1740508851.428296) can0 136#0002000016000032
(1740508851.428519) can0 13A#2C453100000000B4
(1740508851.428804) can0 13F#00000000FFBA003F
(1740508851.429005) can0 17C#000002C6B000207C
(1740508851.429165) can0 18E#00022D
(1740508851.434464) can0 164#00000017AB00003D
(1740508851.436538) can0 18DA11F1#0322261000000000
(1740508851.436809) can0 18DAF111#1039622610FFFDFF
(1740508851.437514) can0 039#001B
(1740508851.437757) can0 158#0000027A00000016
(1740508851.437930) can0 188#000000010006
(1740508851.438282) can0 136#0002000018000003
(1740508851.438540) can0 13A#2C48310000000084
(1740508851.438816) can0 13F#0000000000000005
(1740508851.439048) can0 17C#000002C6B000204F
(1740508851.439141) can0 18E#00013D
(1740508851.439343) can0 1DC#0202C608
(1740508851.441821) can0 18DA11F1#3000000000000000
(1740508851.442080) can0 18DAF111#217DE0000B183821
(1740508851.442600) can0 18DAF111#22396AAD35382393
(1740508851.442850) can0 18DAF111#2364004B00A18F67
(1740508851.443126) can0 18DAF111#2402FA3400008000
(1740508851.443420) can0 18DAF111#250F086F049300D6
(1740508851.443753) can0 18DAF111#2625003000000000
(1740508851.444017) can0 18DAF111#2700000000000000
(1740508851.444287) can0 164#00000017AB000000
(1740508851.444543) can0 18DAF111#2800005555555555
(1740508851.445322) can0 1A4#0000000000000018
(1740508851.445587) can0 1B0#00000000000057
(1740508851.445864) can0 1D0#000000000000000A
(1740508851.447800) can0 158#0000027B00000024
(1740508851.447930) can0 188#000000010015
(1740508851.448342) can0 136#0002000019000011
(1740508851.448564) can0 13A#2C49310000000092
(1740508851.448799) can0 13F#0000000000000014
(1740508851.449026) can0 17C#000002C6B000205E
(1740508851.449175) can0 18E#000100
(1740508851.454454) can0 164#00000017AB00001F
(1740508851.454501) can0 039#002A
(1740508851.454775) can0 294#000C40043ECA002C
(1740508851.458212) can0 158#0000027B00000033
(1740508851.458278) can0 188#000000010024
(1740508851.458410) can0 136#0002000019000020
(1740508851.458555) can0 13A#2C4A3100000000A0
(1740508851.458814) can0 13F#0000000000000023
(1740508851.459055) can0 17C#000002C6B000206D
(1740508851.459177) can0 18E#00021E
(1740508851.459346) can0 1DC#0202C617
(1740508851.459572) can0 320#000012
(1740508851.459736) can0 324#6A350E0E0000001A
(1740508851.459945) can0 37C#0000000011
(1740508851.460162) can0 40C#023632303653323C
(1740508851.460379) can0 454#00F633
(1740508851.460521) can0 465#64644242282832
(1740508851.464384) can0 164#00000017AB00002E
(1740508851.465644) can0 1A4#0000000000000027
(1740508851.465671) can0 1B0#00000000000066
(1740508851.465966) can0 1D0#000000000000000A
(1740508851.468053) can0 158#0000027B00000006
(1740508851.468079) can0 188#000000010033
(1740508851.468358) can0 136#000200001900003F
(1740508851.468537) can0 13A#2C4A3100000000BF
(1740508851.468791) can0 13F#00000000003C0033
(1740508851.469034) can0 17C#000002C0B0002072
(1740508851.469235) can0 18E#00012E
(1740508851.471947) can0 039#0039
(1740508851.475204) can0 164#00000017AB00003D
(1740508851.477845) can0 158#0000027B00000015
(1740508851.478026) can0 188#000000010006
(1740508851.478304) can0 136#0002000019000002
(1740508851.478571) can0 13A#2C4A310000000082
(1740508851.478796) can0 13F#0000000000000005
(1740508851.479041) can0 17C#000002C0B0002045
(1740508851.479233) can0 18E#00013D
(1740508851.479333) can0 1DC#0202C02C
(1740508851.484564) can0 164#00000017AB000000
(1740508851.485468) can0 1A4#0000000000000036
(1740508851.485618) can0 1B0#00000000000075
(1740508851.485867) can0 1D0#000000000000000A
(1740508851.487767) can0 158#0000027A00000025
(1740508851.487937) can0 188#000000010015
(1740508851.488318) can0 136#0002000019000011
(1740508851.488561) can0 13A#2C4A310000000091
(1740508851.488642) can0 039#000C
(1740508851.488896) can0 13F#0000000000000014
(1740508851.489164) can0 17C#000002C0B0002054
(1740508851.489296) can0 18E#00020F
(1740508851.494453) can0 164#00000017AB00001F
(1740508851.494675) can0 294#000C40043ECA003B
(1740508851.497893) can0 158#0000027A00000034
(1740508851.497931) can0 188#000000010024
(1740508851.498308) can0 136#0002000019000020
(1740508851.498523) can0 13A#2C493100000000A1
(1740508851.498801) can0 13F#0000000000000023
(1740508851.499027) can0 17C#000002C0B0002063
(1740508851.499186) can0 18E#000010
(1740508851.499335) can0 1DC#0202C03B
(1740508851.504162) can0 164#00000017AB00002E
(1740508851.505429) can0 1A4#0000000000000009
(1740508851.505499) can0 039#001B
(1740508851.505742) can0 1B0#00000000000048
(1740508851.506006) can0 1D0#000000000000000A
(1740508851.507785) can0 158#0000027A00000007
(1740508851.507923) can0 188#000000010033
(1740508851.508361) can0 136#000200001900003F
(1740508851.508552) can0 13A#2C493100000000B0
(1740508851.508765) can0 13F#0000000000000032
(1740508851.509035) can0 17C#000002C0B0002072
(1740508851.509156) can0 18E#00012E
(1740508851.514524) can0 164#00000017AB00003D
(1740508851.514680) can0 309#000000000000002A
(1740508851.514970) can0 428#000000043ECA0F
(1740508851.515160) can0 42A#0008
(1740508851.515482) can0 405#000004000000000B
(1740508851.517734) can0 158#0000027A00000016
(1740508851.517906) can0 188#000000010006
(1740508851.518297) can0 136#0002000018000003
(1740508851.518511) can0 13A#2C48310000000084
(1740508851.518782) can0 13F#00000000FFEC000D
(1740508851.518999) can0 17C#000002C2B0002043
(1740508851.519151) can0 18E#00023C
(1740508851.519301) can0 1DC#0202C20C
(1740508851.522589) can0 039#002A
(1740508851.524320) can0 164#00000017AB000000
(1740508851.525395) can0 1A4#0000000000000018
(1740508851.525583) can0 1B0#00000000000057
(1740508851.525882) can0 1D0#000000000000000A
(1740508851.527730) can0 158#0000027B00000024
(1740508851.527930) can0 188#000000010015
(1740508851.528268) can0 136#0002000018000012
(1740508851.528556) can0 13A#2C48310000000093
(1740508851.528813) can0 13F#0000000000000014
(1740508851.529006) can0 17C#000002C2B0002052
(1740508851.529167) can0 18E#000100
(1740508851.529280) can0 305#8035
(1740508851.534596) can0 164#00000017AA000010
(1740508851.534868) can0 294#000C40043ECA000E
(1740508851.537802) can0 158#0000027C00000032
(1740508851.538022) can0 188#000000010024
(1740508851.538299) can0 136#0002000018000021
(1740508851.538540) can0 13A#2C483100000000A2
(1740508851.538792) can0 13F#0000000000000023
(1740508851.539074) can0 17C#000002C2B0002061
(1740508851.539167) can0 18E#00011F
(1740508851.539332) can0 1DC#0202C21B
(1740508851.539565) can0 039#0039
(1740508851.544473) can0 164#00000017AB00002E
(1740508851.545496) can0 1A4#0000000000000027
(1740508851.545611) can0 1B0#00000000000066
(1740508851.545906) can0 1D0#000000000000000A
(1740508851.548011) can0 158#0000028000000000
(1740508851.548038) can0 188#000000010033
(1740508851.548322) can0 136#0002000018000030
(1740508851.548531) can0 13A#2C483100000000B1
(1740508851.548768) can0 13F#00000000FD940039
(1740508851.549044) can0 17C#00000300B000207D
(1740508851.549150) can0 18E#00022D
(1740508851.554633) can0 164#00000017AB00003D
(1740508851.556665) can0 039#000C
(1740508851.558179) can0 158#000002830000001C
(1740508851.558208) can0 188#000000010006
(1740508851.558275) can0 136#0002000018000003
(1740508851.558543) can0 13A#2C48310000000084
(1740508851.558769) can0 13F#0000000000000005
(1740508851.559030) can0 17C#00000300B0002040
(1740508851.559219) can0 18E#00013D
(1740508851.559338) can0 1DC#02030027
(1740508851.559490) can0 320#000021
(1740508851.559751) can0 324#6A350E0E00000029
(1740508851.559913) can0 37C#0000000020
(1740508851.564570) can0 164#00000017AB000000
(1740508851.565463) can0 1A4#0000000000000036
(1740508851.565703) can0 1B0#00000000000075
(1740508851.565922) can0 1D0#000000000000000A
(1740508851.568085) can0 158#0000028800000026
(1740508851.568114) can0 188#000000010015
(1740508851.568322) can0 136#0002000017000013
(1740508851.568504) can0 13A#2C47310000000094
(1740508851.568794) can0 13F#0000000000000014
(1740508851.569027) can0 17C#00000300B000205F
(1740508851.569231) can0 18E#00020F
(1740508851.574705) can0 039#001B
(1740508851.574818) can0 164#00000017AB00001F
(1740508851.575091) can0 294#000C40043ECA001D
(1740508851.578225) can0 158#0000029500000037
(1740508851.578253) can0 188#000000010024
(1740508851.578275) can0 136#0002000017000022
(1740508851.578559) can0 13A#2C463100000000A4
(1740508851.578769) can0 13F#0000000000000023
(1740508851.579010) can0 17C#00000300B000206E
(1740508851.579219) can0 18E#00031D
(1740508851.579309) can0 1DC#02030036
(1740508851.584580) can0 164#00000017AB00002E
(1740508851.585440) can0 1A4#0000000000000009
(1740508851.585689) can0 1B0#00000000000048
(1740508851.585890) can0 1D0#000000000000000A
(1740508851.588007) can0 158#0000029D00000002
(1740508851.588034) can0 188#000000010033
(1740508851.588319) can0 136#0002000016000032
(1740508851.588507) can0 13A#2C443100000000B5
(1740508851.588806) can0 13F#00000000FCAE003F
(1740508851.589004) can0 17C#00000355B0002073
(1740508851.589159) can0 18E#00022D
(1740508851.592704) can0 039#002A
(1740508851.594420) can0 164#00000017AB00003D
(1740508851.597817) can0 158#000002AF0000001E
(1740508851.597986) can0 188#000000010006
(1740508851.598293) can0 136#0002000015000006
(1740508851.598575) can0 13A#2C4231000000008A
(1740508851.598769) can0 13F#0000000000000005
(1740508851.598999) can0 17C#00000355B0002046
(1740508851.599146) can0 18E#00023C
(1740508851.599308) can0 1DC#0203550F
(1740508851.604468) can0 164#00000017AB000000
(1740508851.605433) can0 1A4#0000000000000018
(1740508851.605649) can0 1B0#00000000000057
(1740508851.605876) can0 1D0#000000000000000A
(1740508851.607789) can0 158#000002BA00000021
(1740508851.607947) can0 188#000000010015
(1740508851.608228) can0 136#0002000013000017
(1740508851.608500) can0 13A#2C3F31000000009D
(1740508851.608899) can0 13F#0000000000000014
(1740508851.608987) can0 17C#00000355B0002055
(1740508851.609140) can0 18E#00030E
(1740508851.610229) can0 039#0039
(1740508851.614506) can0 164#00000017AA000010
(1740508851.614780) can0 294#000C40043ECA002C
(1740508851.615024) can0 309#0000000000000039
(1740508851.617697) can0 158#000002D300000035
(1740508851.617882) can0 188#000000010024
(1740508851.618246) can0 136#0002000010000029
(1740508851.618465) can0 13A#2C393100000000A2
(1740508851.618715) can0 13F#00000000FC9A0025
(1740508851.618970) can0 17C#000003ACB0002068
(1740508851.619117) can0 18E#00021E
(1740508851.619295) can0 1DC#0203AC12
(1740508851.624368) can0 164#00000017AB00002E
(1740508851.625397) can0 1A4#0000000000000027
(1740508851.625620) can0 1B0#00000000000066
(1740508851.625848) can0 1D0#000000000000000A
(1740508851.627060) can0 039#000C
(1740508851.627753) can0 158#000002F000000009
(1740508851.627954) can0 188#000000010033
(1740508851.628265) can0 136#000200000D00003C
(1740508851.628470) can0 13A#2C333100000000B7
(1740508851.628721) can0 13F#0000000000000032
(1740508851.628974) can0 17C#000003ACB0002077
(1740508851.629143) can0 18E#00022D
(1740508851.632662) can0 305#8008
(1740508851.634581) can0 164#00000017AB00003D
(1740508851.637784) can0 158#000002FF00000019
(1740508851.637962) can0 188#000000010006
(1740508851.638251) can0 136#000200000A000002
(1740508851.638493) can0 13A#2C2C310000000082
(1740508851.638753) can0 13F#0000000000000005
(1740508851.639003) can0 17C#000003ACB000204A
(1740508851.639119) can0 18E#00033B
(1740508851.639281) can0 1DC#0203AC21
(1740508851.644297) can0 164#00000017AB000000
(1740508851.644525) can0 039#001B
(1740508851.645443) can0 1A4#0000000000000036
(1740508851.645620) can0 1B0#00000000000075
(1740508851.645904) can0 1D0#000000000000000A
(1740508851.647966) can0 158#0000032000000023
(1740508851.647991) can0 188#000000010015
(1740508851.648260) can0 136#0002000007000014
(1740508851.648475) can0 13A#2C26310000000097
(1740508851.648725) can0 13F#00000000FCB80016
(1740508851.648987) can0 17C#00000400B000205E
(1740508851.649146) can0 18E#00020F
(1740508851.654678) can0 164#00000017AA000010
(1740508851.654706) can0 294#000C40043ECA003B
(1740508851.657928) can0 158#000003430000003D
(1740508851.657955) can0 188#000000010024
(1740508851.658266) can0 136#0002000005000025
(1740508851.658499) can0 13A#2C203100000000AC
(1740508851.658794) can0 13F#0000000000000023
(1740508851.658971) can0 17C#00000400B000206D
(1740508851.659126) can0 18E#00021E
(1740508851.659314) can0 1DC#02040035
(1740508851.659442) can0 320#000030
(1740508851.659696) can0 324#6A350E0E00000038
(1740508851.660033) can0 37C#000000003F
(1740508851.661538) can0 039#002A
(1740508851.664361) can0 164#00000017AA00002F
(1740508851.665467) can0 1A4#0000000000000009
(1740508851.665680) can0 1B0#00000000000048
(1740508851.665873) can0 1D0#000000000000000A
(1740508851.667803) can0 158#0000036800000009
(1740508851.667994) can0 188#000000010033
(1740508851.668271) can0 136#0002000003000036
(1740508851.668524) can0 13A#2C183100000000B4
(1740508851.668804) can0 13F#0000000000000032
(1740508851.668978) can0 17C#00000400B000207C
(1740508851.669137) can0 18E#00032C
(1740508851.675331) can0 164#00000017AB00003D
(1740508851.678029) can0 158#000003900000001D
(1740508851.678055) can0 188#000000010006
(1740508851.678335) can0 136#000200000100000B
(1740508851.678495) can0 13A#2C1031000000008F
(1740508851.678623) can0 039#0039
(1740508851.678906) can0 13F#00000000FBA00001
(1740508851.679175) can0 17C#00000470B0002048
(1740508851.679279) can0 18E#00013D
(1740508851.679464) can0 1DC#02047001
(1740508851.684358) can0 164#00000017AB000000
(1740508851.685476) can0 1A4#0000000000000018
(1740508851.685702) can0 1B0#00000000000057
(1740508851.685901) can0 1D0#000000000000000A
(1740508851.688021) can0 158#000003B700000023
(1740508851.688047) can0 188#000000010015
(1740508851.688309) can0 136#000200000000001B
(1740508851.688496) can0 13A#2C07310000000098
(1740508851.688780) can0 13F#0000000000000014
(1740508851.689020) can0 17C#000004703000205F
(1740508851.689149) can0 18E#00020F
(1740508851.694487) can0 164#00000017AB00001F
(1740508851.694655) can0 294#000C40043ECA000E
(1740508851.695620) can0 039#000C
(1740508851.698011) can0 158#000003E000000036
(1740508851.698039) can0 188#000000010024
(1740508851.698330) can0 136#000200000000002A
(1740508851.698522) can0 13A#2C003100000000AE
(1740508851.698781) can0 13F#00000000FC18002F
(1740508851.699011) can0 17C#000004D430002064
(1740508851.699149) can0 18E#00031D
(1740508851.699325) can0 1DC#0204D416
(1740508851.704520) can0 164#00000017AA00002F
(1740508851.705446) can0 1A4#0000000000000027
(1740508851.705641) can0 1B0#00000000000066
(1740508851.705911) can0 1D0#000000000000000A
(1740508851.708181) can0 158#0000041E00000007
(1740508851.708220) can0 188#000000010033
(1740508851.708242) can0 136#0002000000000039
(1740508851.708551) can0 13A#2C003100000000BD
(1740508851.708751) can0 13F#0000000000000032
(1740508851.709013) can0 17C#000004D430002073
(1740508851.709149) can0 18E#00022D
(1740508851.713600) can0 039#001B
(1740508851.714565) can0 164#00000017AB00003D
(1740508851.714788) can0 309#000000000000000C
(1740508851.717784) can0 158#0000044800000019
(1740508851.717995) can0 188#000000010006
(1740508851.718277) can0 136#000200000000000C
(1740508851.718516) can0 13A#2C00310000000080
(1740508851.718765) can0 13F#00000000FC220006
(1740508851.719013) can0 17C#000005373000204C
(1740508851.719152) can0 18E#00023C
(1740508851.719306) can0 1DC#0205372B
(1740508851.724280) can0 164#00000017AA000001
(1740508851.725666) can0 1A4#0000000000000036
(1740508851.725694) can0 1B0#00000000000075
(1740508851.725933) can0 1D0#000000000000000A
(1740508851.727788) can0 158#000004730000002A
(1740508851.727974) can0 188#000000010015
(1740508851.728256) can0 136#000200000000001B
(1740508851.728523) can0 13A#2C0031000000009F
(1740508851.728743) can0 13F#0000000000000014
(1740508851.729023) can0 17C#000005373000205B
(1740508851.729120) can0 18E#00030E
(1740508851.731994) can0 039#002A
(1740508851.734494) can0 164#00000017AB00001F
(1740508851.734733) can0 294#000C40043ECA001D
(1740508851.737595) can0 305#8017
(1740508851.737826) can0 158#0000048B00000030
(1740508851.737980) can0 188#000000010024
(1740508851.738265) can0 136#000200000000002A
(1740508851.738525) can0 13A#2C003100000000AE
(1740508851.738769) can0 13F#00000000FC220024
(1740508851.739017) can0 17C#0000059A30002061
(1740508851.739122) can0 18E#00021E
(1740508851.739282) can0 1DC#02059A31
(1740508851.739625) can0 18DA11F1#0322261000000000
(1740508851.739954) can0 18DAF111#1039622610FFFDFF
(1740508851.744490) can0 164#00000017AB00002E
(1740508851.744898) can0 18DA11F1#3000000000000000
(1740508851.745196) can0 18DAF111#217DE00016682509
(1740508851.745443) can0 1A4#0000000000000009
(1740508851.745708) can0 18DAF111#22396AAD355C3D93
(1740508851.745935) can0 1B0#00000000000048
(1740508851.746201) can0 18DAF111#236400FF009C8E46
(1740508851.746492) can0 1D0#000000000000000A
(1740508851.746707) can0 18DAF111#2406D33400000000
(1740508851.746997) can0 18DAF111#250F0848014F00D6
(1740508851.747298) can0 18DAF111#262501B300000000
(1740508851.747588) can0 18DAF111#2700000000000000
(1740508851.747855) can0 158#000004C700000003
(1740508851.748062) can0 188#000000010033
(1740508851.748349) can0 18DAF111#2800005555555555
(1740508851.748592) can0 136#0002000000000039
(1740508851.748699) can0 039#0039
(1740508851.748974) can0 13A#2C003100000000BD
(1740508851.749223) can0 13F#0000000000000032
(1740508851.749474) can0 17C#0000059A30002070
(1740508851.749640) can0 18E#00022D
(1740508851.754689) can0 164#00000017AB00003D
(1740508851.758203) can0 158#000004ED0000001A
(1740508851.758240) can0 188#000000010006
(1740508851.758261) can0 136#000200000000000C
(1740508851.758548) can0 13A#2C00310000000080
(1740508851.758767) can0 13F#00000000FD080001
(1740508851.758996) can0 17C#000005E630002042
(1740508851.759229) can0 18E#00033B
(1740508851.759320) can0 1DC#0205E603
(1740508851.759481) can0 320#000003
(1740508851.759698) can0 324#6A350E1000000008
(1740508851.759928) can0 37C#0000000002
(1740508851.760152) can0 40C#0330373433330005
(1740508851.760344) can0 454#00F606
(1740508851.760495) can0 465#64644242282805
(1740508851.764396) can0 164#00000017AB000000
(1740508851.765707) can0 1A4#0000000000000018
(1740508851.765735) can0 039#000C
(1740508851.765821) can0 1B0#00000000000057
(1740508851.766103) can0 1D0#000000000000000A
(1740508851.768093) can0 158#0000053900000027
(1740508851.768122) can0 188#000000010015
(1740508851.768305) can0 136#000200000000001B
(1740508851.768504) can0 13A#2C0031000000009F
(1740508851.768743) can0 13F#0000000000000014
(1740508851.768974) can0 17C#000005E630002051
(1740508851.769201) can0 18E#00020F
(1740508851.774953) can0 164#00000017AB00001F
(1740508851.775223) can0 294#000C40043ECA002C
(1740508851.778217) can0 158#0000055D00000030
(1740508851.778244) can0 188#000000010024
(1740508851.778247) can0 136#000200000000002A
(1740508851.778540) can0 13A#2C003100000000AE
(1740508851.778768) can0 13F#00000000FD80002F
(1740508851.779007) can0 17C#000006263000206B
(1740508851.779224) can0 18E#00021E
(1740508851.779281) can0 1DC#0206261D
(1740508851.782840) can0 039#001B
(1740508851.784521) can0 164#00000017AA00002F
(1740508851.785522) can0 1A4#0000000000000027
(1740508851.785727) can0 1B0#00000000000066
(1740508851.785941) can0 1D0#000000000000000A
(1740508851.788021) can0 158#000005A10000000A
(1740508851.788049) can0 188#000000010033
(1740508851.788301) can0 136#0002000000000039
(1740508851.788505) can0 13A#2C003100000000BD
(1740508851.788729) can0 13F#0000000000000032
(1740508851.788996) can0 17C#000006263000207A
(1740508851.789131) can0 18E#00032C
(1740508851.794786) can0 164#00000017AB00003D
(1740508851.797912) can0 158#000005C000000018
(1740508851.797939) can0 188#000000010006
(1740508851.798270) can0 136#000200000000000C
(1740508851.798508) can0 13A#2C00310000000080
(1740508851.798743) can0 13F#00000000FDE40007
(1740508851.799026) can0 17C#0000065C30002044
(1740508851.799127) can0 18E#00023C
(1740508851.799284) can0 1DC#02065C23
(1740508851.800838) can0 039#002A
(1740508851.804927) can0 164#00000017AB000000
(1740508851.805448) can0 1A4#0000000000000036
(1740508851.805743) can0 1B0#00000000000075
(1740508851.805942) can0 1D0#000000000000000A
(1740508851.808526) can0 158#000005F60000002E
(1740508851.808554) can0 188#000000010015
(1740508851.808557) can0 136#000200000000001B
(1740508851.808559) can0 13A#2C0031000000009F
(1740508851.808796) can0 13F#0000000000000014
(1740508851.808965) can0 17C#0000065C30002053
(1740508851.809132) can0 18E#00020F
(1740508851.814852) can0 164#00000017AB00001F
(1740508851.814880) can0 294#000C40043ECA003B
(1740508851.814904) can0 309#000000000000001B
(1740508851.815213) can0 428#000000043ECA1E
(1740508851.815390) can0 42A#0017
(1740508851.815686) can0 405#000004000000001A
(1740508851.817788) can0 158#000006240000003B
(1740508851.817966) can0 188#000000010024
(1740508851.818245) can0 136#000200000000002A
(1740508851.818516) can0 13A#2C003100000000AE
(1740508851.818629) can0 039#0039
(1740508851.818866) can0 13F#00000000FDC60025
(1740508851.819123) can0 17C#0000069530002065
(1740508851.819258) can0 18E#00031D
(1740508851.819471) can0 1DC#02069535
(1740508851.824380) can0 164#00000017AA00002F
(1740508851.825528) can0 1A4#0000000000000009
(1740508851.825657) can0 1B0#00000000000048
(1740508851.826003) can0 1D0#000000000000000A
(1740508851.827809) can0 158#0000064D00000003
(1740508851.827920) can0 188#000000010033
(1740508851.828265) can0 136#0002000000000039
(1740508851.828477) can0 13A#2C003100000000BD
(1740508851.828749) can0 13F#0000000000000032
(1740508851.828971) can0 17C#0000069530002074
(1740508851.829141) can0 18E#00022D
(1740508851.834541) can0 164#00000017AA00003E
(1740508851.836573) can0 039#000C
(1740508851.837774) can0 158#000006610000001C
(1740508851.837889) can0 188#000000010006
(1740508851.838275) can0 136#000200000000000C
(1740508851.838545) can0 13A#2C00310000000080
(1740508851.838746) can0 13F#00000000FE020006
(1740508851.839047) can0 17C#000006C830002041
(1740508851.839170) can0 18E#00023C
(1740508851.839294) can0 1DC#0206C802
(1740508851.842605) can0 305#8026
(1740508851.844427) can0 164#00000017AB000000
(1740508851.845441) can0 1A4#0000000000000018
(1740508851.845669) can0 1B0#00000000000057
(1740508851.845952) can0 1D0#000000000000000A
(1740508851.847754) can0 158#0000068500000025
(1740508851.847906) can0 188#000000010015
(1740508851.848257) can0 136#000200000000001B
(1740508851.848507) can0 13A#2C0031000000009F
(1740508851.848731) can0 13F#00000000FE7A0016
(1740508851.848985) can0 17C#000006EF30002057
(1740508851.849094) can0 18E#00030E
(1740508851.854886) can0 164#00000017AB00001F
(1740508851.854934) can0 039#001B
(1740508851.854937) can0 294#000C40043ECA000E
(1740508851.858201) can0 158#000006A300000034
(1740508851.858249) can0 188#000000010024
(1740508851.858300) can0 136#000200000000002A
(1740508851.858487) can0 13A#2C003100000000AE
(1740508851.858748) can0 13F#0000000000000023
(1740508851.859057) can0 17C#000006EF30002066
(1740508851.859281) can0 18E#00021E
(1740508851.859302) can0 1DC#0206EF18
(1740508851.859487) can0 320#000012
(1740508851.859672) can0 324#6A350E1000000017
(1740508851.859923) can0 37C#0000000011
(1740508851.864378) can0 164#00000017AB00002E
(1740508851.865708) can0 1A4#0000000000000027
(1740508851.865737) can0 1B0#00000000000066
(1740508851.865947) can0 1D0#000000000000000A
(1740508851.868087) can0 158#000006BF0000000A
(1740508851.868115) can0 188#000000010033
(1740508851.868246) can0 136#0002000000000039
(1740508851.868561) can0 13A#2C003100000000BD
(1740508851.868808) can0 13F#00000000FE8E003F
(1740508851.869032) can0 17C#000007143000207C
(1740508851.869128) can0 18E#00022D
(1740508851.872781) can0 039#002A
(1740508851.875008) can0 164#00000017AB00003D
(1740508851.878012) can0 158#000006DB0000001B
(1740508851.878039) can0 188#000000010006
(1740508851.878296) can0 136#000200000000000C
(1740508851.878557) can0 13A#2C00310000000080
(1740508851.878807) can0 13F#0000000000000005
(1740508851.879026) can0 17C#000007143000204F
(1740508851.879136) can0 18E#00033B
(1740508851.879347) can0 1DC#0207142E
(1740508851.884396) can0 164#00000017AB000000
(1740508851.885712) can0 1A4#0000000000000036
(1740508851.885740) can0 1B0#00000000000075
(1740508851.886020) can0 1D0#000000000000000A
(1740508851.887780) can0 158#000006F40000002F
(1740508851.888011) can0 188#000000010015
(1740508851.888370) can0 136#000200000000001B
(1740508851.888507) can0 13A#2C0031000000009F
(1740508851.888731) can0 13F#00000000FED40016
(1740508851.889006) can0 17C#000007323000205E
(1740508851.889102) can0 18E#000100
(1740508851.890858) can0 039#0039
(1740508851.894494) can0 164#00000017AA000010
(1740508851.894772) can0 294#000C40043ECA001D
(1740508851.897981) can0 158#0000070900000037
(1740508851.898008) can0 188#000000010024
(1740508851.898349) can0 136#000200000000002A
(1740508851.898468) can0 13A#2C003100000000AE
(1740508851.898810) can0 13F#00000000FEE80020
(1740508851.899063) can0 17C#0000074E30002060
(1740508851.899135) can0 18E#00011F
(1740508851.899296) can0 1DC#02074E30
(1740508851.904513) can0 164#00000017AA00002F
(1740508851.905540) can0 1A4#0000000000000009
(1740508851.905713) can0 1B0#00000000000048
(1740508851.906055) can0 1D0#000000000000000A
(1740508851.908202) can0 158#0000071C00000006
(1740508851.908230) can0 039#000C
(1740508851.908234) can0 188#000000010033
(1740508851.908300) can0 136#0002000000000039
(1740508851.908649) can0 13A#2C003100000000BD
(1740508851.908821) can0 13F#0000000000000032
(1740508851.909087) can0 17C#0000074E3000207F
(1740508851.909171) can0 18E#00022D
(1740508851.914625) can0 164#00000017AA00003E
(1740508851.914819) can0 309#000000000000002A
(1740508851.918214) can0 158#0000072F00000011
(1740508851.918242) can0 188#000000010006
(1740508851.918245) can0 136#000200000000000C
(1740508851.918572) can0 13A#2C00310000000080
(1740508851.918757) can0 13F#00000000FF240001
(1740508851.919047) can0 17C#000007643000204A
(1740508851.919106) can0 18E#00013D
(1740508851.919310) can0 1DC#0207640B
(1740508851.924635) can0 164#00000017AB000000
(1740508851.925523) can0 1A4#0000000000000018
(1740508851.925587) can0 039#001B
(1740508851.925851) can0 1B0#00000000000057
(1740508851.926066) can0 1D0#000000000000000A
(1740508851.928025) can0 158#000007420000002B
(1740508851.928053) can0 188#000000010015
(1740508851.928344) can0 136#000200000000001B
(1740508851.928480) can0 13A#2C0031000000009F
(1740508851.928701) can0 13F#00000000FF240010
(1740508851.928975) can0 17C#0000077A30002052
(1740508851.929114) can0 18E#000100
(1740508851.934833) can0 164#00000017AA000010
(1740508851.934861) can0 294#000C40043ECA002C
(1740508851.938010) can0 158#000007510000003A
(1740508851.938038) can0 188#000000010024
(1740508851.938275) can0 136#000200000000002A
(1740508851.938525) can0 13A#2C003100000000AE
(1740508851.938755) can0 13F#0000000000000023
(1740508851.939049) can0 17C#0000077A30002061
(1740508851.939106) can0 18E#00021E
(1740508851.939364) can0 1DC#02077A13
(1740508851.943589) can0 039#002A
(1740508851.944296) can0 164#00000017AB00002E
(1740508851.945531) can0 1A4#0000000000000027
(1740508851.945751) can0 1B0#00000000000066
(1740508851.946046) can0 1D0#000000000000000A
(1740508851.947783) can0 158#0000075E00000000
(1740508851.947914) can0 188#000000010033
(1740508851.948270) can0 136#0002000000000039
(1740508851.948513) can0 13A#2C003100000000BD
(1740508851.948720) can0 13F#00000000FFA60034
(1740508851.949070) can0 17C#0000078330002076
(1740508851.949118) can0 18E#00012E
(1740508851.949510) can0 305#8035
(1740508851.954811) can0 164#00000017AA00003E
(1740508851.957796) can0 158#0000076A00000012
(1740508851.957982) can0 188#000000010006
(1740508851.958342) can0 136#000200000000000C
(1740508851.958509) can0 13A#2C00310000000080
(1740508851.958794) can0 13F#0000000000000005
(1740508851.959033) can0 17C#0000078330002049
(1740508851.959175) can0 18E#00013D
(1740508851.959312) can0 1DC#02078328
(1740508851.959443) can0 320#000021
(1740508851.959652) can0 324#6A350E1200000024
(1740508851.959903) can0 37C#0000000020
(1740508851.961811) can0 039#0039
(1740508851.964392) can0 164#00000017AB000000
(1740508851.965587) can0 1A4#0000000000000036
(1740508851.965807) can0 1B0#00000000000075
(1740508851.966068) can0 1D0#000000000000000A
(1740508851.968009) can0 158#0000077600000024
(1740508851.968036) can0 188#000000010015
(1740508851.968280) can0 136#000200000000001B
(1740508851.968533) can0 13A#2C0031000000009F
(1740508851.968753) can0 13F#00000000FF74001B
(1740508851.968939) can0 17C#0000079130002059
(1740508851.969124) can0 18E#00020F
(1740508851.974913) can0 164#00000017AA000010
(1740508851.975168) can0 294#000C40043ECA003B
(1740508851.977756) can0 158#0000077F0000003A
(1740508851.978000) can0 188#000000010024
(1740508851.978309) can0 136#000200000000002A
(1740508851.978547) can0 13A#2C003100000000AE
(1740508851.978589) can0 039#000C
(1740508851.978914) can0 13F#00000000FF880025
(1740508851.979152) can0 17C#0000079D3000206C
(1740508851.979229) can0 18E#00011F
(1740508851.979384) can0 1DC#02079D3C
(1740508851.984549) can0 164#00000017AA00002F
(1740508851.985529) can0 1A4#0000000000000009
(1740508851.985685) can0 1B0#00000000000048
(1740508851.986062) can0 1D0#000000000000000A
(1740508851.988016) can0 158#0000078700000004
(1740508851.988043) can0 188#000000010033
(1740508851.988295) can0 136#0002000000000039
(1740508851.988535) can0 13A#2C003100000000BD
(1740508851.988767) can0 13F#0000000000000032
(1740508851.989021) can0 17C#0000079D3000207B
(1740508851.989113) can0 18E#00012E
(1740508851.994639) can0 164#00000017AB00003D
(1740508851.995566) can0 039#001B
(1740508851.998080) can0 158#0000078E0000001C
(1740508851.998113) can0 188#000000010006
(1740508851.998300) can0 136#000200000000000C
(1740508851.998540) can0 13A#2C00310000000080
(1740508851.998790) can0 13F#00000000FFC40007
(1740508851.999029) can0 17C#000007A330002047
(1740508851.999103) can0 18E#00023C
(1740508851.999357) can0 1DC#0207A308
(1740508852.004544) can0 164#00000017AB000000
(1740508852.005545) can0 1A4#0000000000000018
(1740508852.005790) can0 1B0#00000000000057
(1740508852.006063) can0 1D0#000000000000000A
(1740508852.008008) can0 158#0000079500000023
(1740508852.008036) can0 188#000000010015
(1740508852.008276) can0 136#000200000000001B
(1740508852.008534) can0 13A#2C0031000000009F
(1740508852.008698) can0 13F#00000000FFE20016
(1740508852.009020) can0 17C#000007A630002053
(1740508852.009115) can0 18E#000100
(1740508852.012892) can0 039#002A
(1740508852.014410) can0 164#00000017AB00001F
(1740508852.014645) can0 294#000C40043ECA000E
(1740508852.014974) can0 309#0000000000000039
(1740508852.017748) can0 158#0000079B0000003C
(1740508852.017962) can0 188#000000010024
(1740508852.018254) can0 136#000200000000002A
(1740508852.018530) can0 13A#2C003100000000AE
(1740508852.018744) can0 13F#0000000000000023
(1740508852.018994) can0 17C#000007A630002062
(1740508852.019139) can0 18E#00011F
(1740508852.019313) can0 1DC#0207A614
(1740508852.024348) can0 164#00000017AA00002F
(1740508852.025533) can0 1A4#0000000000000027
(1740508852.025703) can0 1B0#00000000000066
(1740508852.025991) can0 1D0#000000000000000A
(1740508852.027703) can0 158#0000079E0000000C
(1740508852.027894) can0 188#000000010033
(1740508852.028211) can0 136#0002000000000039
(1740508852.028460) can0 13A#2C003100000000BD
(1740508852.028700) can0 13F#00000000FFF6003F
(1740508852.028965) can0 17C#000007A730002070
(1740508852.029093) can0 18E#00022D
(1740508852.030514) can0 039#0039
(1740508852.034466) can0 164#00000017AB00003D
(1740508852.037811) can0 158#000007A000000018
(1740508852.037904) can0 188#000000010006
(1740508852.038242) can0 136#000200000000000C
(1740508852.038493) can0 13A#2C00310000000080
(1740508852.038706) can0 13F#0000000000140000
(1740508852.038953) can0 17C#000007A530002045
(1740508852.039112) can0 18E#00013D
(1740508852.039269) can0 1DC#0207A524
(1740508852.044326) can0 164#00000017AA000001
(1740508852.045527) can0 1A4#0000000000000036
(1740508852.045774) can0 1B0#00000000000075
(1740508852.045982) can0 1D0#000000000000000A
(1740508852.047782) can0 158#000007A500000022
(1740508852.047818) can0 039#000C
(1740508852.048076) can0 188#000000010015
(1740508852.048342) can0 136#000200000000001B
(1740508852.048528) can0 13A#2C0031000000009F
(1740508852.048823) can0 13F#0000000000000014
(1740508852.049075) can0 17C#000007A530002054
(1740508852.049185) can0 18E#000001
(1740508852.053776) can0 305#8008
(1740508852.054506) can0 164#00000017AA000010
(1740508852.054739) can0 294#000C40043ECA001D
(1740508852.058221) can0 158#000007A70000003F
(1740508852.058248) can0 188#000000010024
(1740508852.058251) can0 136#0202000000000028
(1740508852.058554) can0 13A#2C003100000000AE
(1740508852.058719) can0 13F#0000000000460029
(1740508852.058988) can0 17C#0000079E3000206B
(1740508852.059169) can0 18E#00011F
(1740508852.059346) can0 1DC#02079E3B
(1740508852.059481) can0 320#000030
(1740508852.059715) can0 324#6A350E1200000033
(1740508852.059878) can0 37C#000000003F
(1740508852.060136) can0 40C#0000000004000013
(1740508852.060317) can0 454#00F615
(1740508852.060481) can0 465#64644242282814
(1740508852.064469) can0 164#00000017AA00002F
(1740508852.064681) can0 039#001B
(1740508852.065572) can0 1A4#0000000000000009
(1740508852.065861) can0 1B0#00000000000048
(1740508852.065997) can0 1D0#000000000000000A
(1740508852.067764) can0 158#000007A400000005
(1740508852.067963) can0 188#000000010033
(1740508852.068216) can0 136#0202000000000037
(1740508852.068493) can0 13A#2C003100000000BD
(1740508852.068718) can0 13F#00000000003C0033
(1740508852.068953) can0 17C#0000079830002070
(1740508852.069164) can0 18E#00002F
(1740508852.074897) can0 164#00000017AB00003D
(1740508852.077796) can0 158#000007A300000015
(1740508852.077973) can0 188#000000010006
(1740508852.078244) can0 136#020200000000000A
(1740508852.078488) can0 13A#2C00310000000080
(1740508852.078733) can0 13F#0000000000000005
(1740508852.078987) can0 17C#0000079830002043
(1740508852.079164) can0 18E#00003E
(1740508852.079297) can0 1DC#02079804
(1740508852.082738) can0 039#002A
(1740508852.084514) can0 164#00000017AB000000
(1740508852.085564) can0 1A4#0000000000000018
(1740508852.085723) can0 1B0#00000000000057
(1740508852.086032) can0 1D0#000000000000000A
(1740508852.087772) can0 158#000007A200000025
(1740508852.087972) can0 188#000000010015
(1740508852.088233) can0 136#0202000000000019
(1740508852.088493) can0 13A#2C0031000000009F
(1740508852.088769) can0 13F#000000000032001F
(1740508852.088956) can0 17C#0000079330002057
(1740508852.089164) can0 18E#000100
(1740508852.094628) can0 164#00000017AA000010
(1740508852.094655) can0 294#000C40043ECA002C
(1740508852.097915) can0 158#000007A000000036
(1740508852.097941) can0 188#000000010024
(1740508852.098273) can0 136#0202000000000028
(1740508852.098491) can0 13A#2C003100000000AE
(1740508852.098785) can0 13F#0000000000280029
(1740508852.098958) can0 17C#0000078F3000206B
(1740508852.099100) can0 18E#000010
(1740508852.099258) can0 1DC#02078F1D
(1740508852.099520) can0 039#0039
(1740508852.104558) can0 164#00000017AA00002F
(1740508852.105647) can0 1A4#0000000000000027
(1740508852.105716) can0 1B0#00000000000066
(1740508852.106045) can0 1D0#000000000000000A
(1740508852.107758) can0 158#0000079C0000000E
(1740508852.107945) can0 188#000000010033
(1740508852.108194) can0 136#0202000000000037
(1740508852.108481) can0 13A#2C003100000000BD
(1740508852.108669) can0 13F#0000000000000032
(1740508852.108983) can0 17C#0000078F3000207A
(1740508852.109129) can0 18E#00002F
(1740508852.114570) can0 164#00000017AB00003D
(1740508852.114615) can0 309#000000000000000C
(1740508852.114968) can0 428#000000043ECA2D
(1740508852.115078) can0 42A#0026
(1740508852.115406) can0 405#0000040000000029
(1740508852.117556) can0 039#000C
(1740508852.117747) can0 158#0000079900000010
(1740508852.117966) can0 188#000000010006
(1740508852.118250) can0 136#020200000000000A
(1740508852.118460) can0 13A#2C00310000000080
(1740508852.118710) can0 13F#0000000000E60001
(1740508852.118954) can0 17C#0000077830002045
(1740508852.119095) can0 18E#00013D
(1740508852.119252) can0 1DC#02077824
(1740508852.124281) can0 164#00000017AB000000
(1740508852.125565) can0 1A4#0000000000000036
(1740508852.125726) can0 1B0#00000000000075
(1740508852.126056) can0 1D0#000000000000000A
(1740508852.127727) can0 158#0000079500000023
(1740508852.127920) can0 188#000000010015
(1740508852.128220) can0 136#0202000000000019
(1740508852.128498) can0 13A#2C0031000000009F
(1740508852.128679) can0 13F#0000000000000014
(1740508852.129010) can0 17C#0000077830002054
(1740508852.129206) can0 18E#000001
(1740508852.134511) can0 164#00000017AB00001F
(1740508852.134592) can0 039#001B
(1740508852.134908) can0 294#000C40043ECA003B
(1740508852.138034) can0 158#0000079000000037
(1740508852.138063) can0 188#000000010024
(1740508852.138197) can0 136#0202000000000028
(1740508852.138504) can0 13A#2C003100000000AE
(1740508852.138744) can0 13F#000000000104002E
(1740508852.138989) can0 17C#0000075E3000206F
(1740508852.139075) can0 18E#000010
(1740508852.139308) can0 1DC#02075E3F
(1740508852.144456) can0 164#00000017AB00002E
(1740508852.145570) can0 1A4#0000000000000009
(1740508852.145750) can0 1B0#00000000000048
(1740508852.146045) can0 1D0#000000000000000A
(1740508852.147924) can0 158#0000078800000003
(1740508852.147955) can0 188#000000010033
(1740508852.148178) can0 136#0202000000000037
(1740508852.148515) can0 13A#2C003100000000BD
(1740508852.148681) can0 13F#00000000010E0033
(1740508852.148968) can0 17C#000007433000207A
(1740508852.149058) can0 18E#00012E
(1740508852.151546) can0 18DA11F1#0322261000000000
(1740508852.151778) can0 18DAF111#1039622610FFFDFF
(1740508852.152611) can0 039#002A
(1740508852.154411) can0 164#00000017AB00003D
(1740508852.156834) can0 18DA11F1#3000000000000000
(1740508852.157148) can0 18DAF111#217DE0001D0C260A
(1740508852.157325) can0 18DAF111#22396AAD35241593
(1740508852.157671) can0 18DAF111#2364001D00988E47
(1740508852.157853) can0 158#000007800000001A
(1740508852.158059) can0 188#000000010006
(1740508852.158394) can0 18DAF111#2400003400008000
(1740508852.158605) can0 136#020200000000000A
(1740508852.158843) can0 13A#2C00310000000080
(1740508852.159175) can0 13F#0000000000000005
(1740508852.159335) can0 17C#000007433000204D
(1740508852.159472) can0 18E#00003E
(1740508852.159645) can0 1DC#0207430E
(1740508852.159930) can0 305#8017
(1740508852.159960) can0 320#000003
(1740508852.160172) can0 324#6A350E1200000006
(1740508852.160449) can0 37C#0000000002
(1740508852.160644) can0 18DAF111#250F0844011C00D6
(1740508852.160998) can0 18DAF111#2625001500000000
(1740508852.161299) can0 18DAF111#2700000000000000
(1740508852.161520) can0 18DAF111#2800005555555555
(1740508852.164397) can0 164#00000017AB000000
(1740508852.165585) can0 1A4#0000000000000018
(1740508852.165756) can0 1B0#00000000000057
(1740508852.166048) can0 1D0#000000000000000A
(1740508852.167820) can0 158#0000077400000026
(1740508852.167930) can0 188#000000010015
(1740508852.168442) can0 136#0202000000000019
(1740508852.168496) can0 13A#2C0031000000009F
(1740508852.168717) can0 13F#000000000118001A
(1740508852.168918) can0 17C#000007273000205A
(1740508852.169068) can0 18E#000001
(1740508852.170963) can0 039#0039
(1740508852.175006) can0 164#00000017AA000010
(1740508852.175128) can0 294#000C40043ECA000E
(1740508852.177745) can0 158#0000076500000035
(1740508852.177878) can0 188#000000010024
(1740508852.178179) can0 136#0202000000000028
(1740508852.178446) can0 13A#2C003100000000AE
(1740508852.178668) can0 13F#0000000000FA002A
(1740508852.178910) can0 17C#0000070E30002064
(1740508852.179159) can0 18E#00011F
(1740508852.179218) can0 1DC#02070E16
(1740508852.184487) can0 164#00000017AB00002E
(1740508852.185562) can0 1A4#0000000000000027
(1740508852.185766) can0 1B0#00000000000066
(1740508852.186001) can0 1D0#000000000000000A
(1740508852.187906) can0 158#0000075600000008
(1740508852.187933) can0 039#000C
(1740508852.188019) can0 188#000000010033
(1740508852.188311) can0 136#0202000000000037
(1740508852.188497) can0 13A#2C003100000000BD
(1740508852.188776) can0 13F#0000000000000032
(1740508852.189102) can0 17C#0000070E30002073
(1740508852.189131) can0 18E#00002F
(1740508852.194558) can0 164#00000017AB00003D
(1740508852.197812) can0 158#0000074800000016
(1740508852.197859) can0 188#000000010006
(1740508852.198144) can0 18E#00023C
(1740508852.198303) can0 136#020200000000000A
(1740508852.198530) can0 13A#2C00310000000080
(1740508852.198796) can0 13F#0000000001040000
(1740508852.199104) can0 17C#000006F430002042
(1740508852.199170) can0 1DC#0206F421
(1740508852.204295) can0 164#00000017AB000000
(1740508852.204769) can0 039#001B
(1740508852.205611) can0 1A4#0000000000000036
(1740508852.205767) can0 1B0#00000000000075
(1740508852.206041) can0 1D0#000000000000000A
(1740508852.208012) can0 158#0000073C00000022
(1740508852.208040) can0 188#000000010015
(1740508852.208172) can0 136#0202000000000019
(1740508852.208457) can0 13A#2C0031000000009F
(1740508852.208671) can0 13F#0000000000000014
(1740508852.209028) can0 17C#000006F430002051
(1740508852.209060) can0 18E#000100
(1740508852.214592) can0 164#00000017AB00001F
(1740508852.214642) can0 294#000C40043ECA001D
(1740508852.214962) can0 309#000000000000001B
(1740508852.217694) can0 158#0000072F0000003F
(1740508852.217870) can0 188#000000010024
(1740508852.218168) can0 136#0202000000000028
(1740508852.218438) can0 13A#2C003100000000AE
(1740508852.218635) can0 13F#000000000104002E
(1740508852.218892) can0 17C#000006DA3000206C
(1740508852.219044) can0 18E#000010
(1740508852.219220) can0 1DC#0206DA3C
(1740508852.221569) can0 039#002A
(1740508852.224264) can0 164#00000017AB00002E
(1740508852.225588) can0 1A4#0000000000000009
(1740508852.225769) can0 1B0#00000000000048
(1740508852.226055) can0 1D0#000000000000000A
(1740508852.227735) can0 158#0000071F00000003
(1740508852.227922) can0 188#000000010033
(1740508852.228225) can0 136#0202000000000037
(1740508852.228479) can0 13A#2C003100000000BD
(1740508852.228673) can0 13F#0000000000000032
(1740508852.228897) can0 17C#000006DA3000207B
(1740508852.229044) can0 18E#00002F
(1740508852.234415) can0 164#00000017AB00003D
(1740508852.237768) can0 158#0000071000000011
(1740508852.237916) can0 188#000000010006
(1740508852.238248) can0 136#020200000000000A
(1740508852.238524) can0 13A#2C00310000000080
(1740508852.238567) can0 039#0039
(1740508852.238871) can0 13F#0000000000FA000C
(1740508852.239195) can0 17C#000006C130002048
(1740508852.239236) can0 18E#00013D
(1740508852.239386) can0 1DC#0206C109
(1740508852.244340) can0 164#00000017AB000000
(1740508852.245612) can0 1A4#0000000000000018
(1740508852.245869) can0 1B0#00000000000057
(1740508852.246098) can0 1D0#000000000000000A
(1740508852.247830) can0 158#000007020000002F
(1740508852.247894) can0 188#000000010015
(1740508852.248239) can0 136#0202000000000019
(1740508852.248471) can0 13A#2C0031000000009F
(1740508852.248697) can0 13F#00000000010E0015
(1740508852.248929) can0 17C#000006A630002054
(1740508852.249125) can0 18E#000001
(1740508852.254597) can0 164#00000017AA000010
(1740508852.254623) can0 294#000C40043ECA002C
(1740508852.255641) can0 039#000C
(1740508852.258060) can0 158#000006F30000003F
(1740508852.258088) can0 188#000000010024
(1740508852.258262) can0 136#0202000000000028
(1740508852.258542) can0 13A#2C003100000000AE
(1740508852.258714) can0 13F#0000000000000023
(1740508852.259004) can0 17C#000006A630002063
(1740508852.259080) can0 18E#000010
(1740508852.259266) can0 1DC#0206A615
(1740508852.259465) can0 320#000012
(1740508852.259707) can0 324#6A350E1200000015
(1740508852.259836) can0 37C#0000000011
(1740508852.261733) can0 305#8026
(1740508852.264496) can0 164#00000017AB00002E
(1740508852.265620) can0 1A4#0000000000000027
(1740508852.265844) can0 1B0#00000000000066
(1740508852.266107) can0 1D0#000000000000000A
(1740508852.268069) can0 158#000006E300000003
(1740508852.268097) can0 188#000000010033
(1740508852.268261) can0 136#0202000000000037
(1740508852.268532) can0 13A#2C003100000000BD
(1740508852.268716) can0 13F#000000000104003D
(1740508852.268983) can0 17C#0000068C3000207E
(1740508852.269154) can0 18E#00012E
(1740508852.273151) can0 039#001B
(1740508852.274919) can0 164#00000017AB00003D
(1740508852.277798) can0 158#000006D400000012
(1740508852.277985) can0 188#000000010006
(1740508852.278257) can0 136#020200000000000A
(1740508852.278499) can0 13A#2C00310000000080
(1740508852.278747) can0 13F#0000000000000005
(1740508852.278983) can0 17C#0000068C30002041
(1740508852.279166) can0 18E#00003E
(1740508852.279247) can0 1DC#02068C20
(1740508852.284415) can0 164#00000017AB000000
(1740508852.285633) can0 1A4#0000000000000036
(1740508852.285881) can0 1B0#00000000000075
(1740508852.286134) can0 1D0#000000000000000A
(1740508852.287777) can0 158#000006CC0000002A
(1740508852.287976) can0 188#000000010015
(1740508852.288193) can0 136#0202000000000019
(1740508852.288501) can0 13A#2C0031000000009F
(1740508852.288805) can0 13F#000000000104001F
(1740508852.288909) can0 17C#000006723000205B
(1740508852.289073) can0 18E#000001
(1740508852.289716) can0 039#002A
(1740508852.294883) can0 164#00000017AA000010
(1740508852.294911) can0 294#000C40043ECA003B
(1740508852.297796) can0 158#000006BE00000038
(1740508852.298003) can0 188#000000010024
(1740508852.298243) can0 136#0202000000000028
(1740508852.298467) can0 13A#2C003100000000AE
(1740508852.298768) can0 13F#0000000000000023
(1740508852.298918) can0 17C#000006723000206A
(1740508852.299085) can0 18E#00011F
(1740508852.299234) can0 1DC#0206723A
(1740508852.304439) can0 164#00000017AA00002F
(1740508852.305627) can0 1A4#0000000000000009
(1740508852.305850) can0 1B0#00000000000048
(1740508852.306044) can0 1D0#000000000000000A
(1740508852.307863) can0 039#0039
(1740508852.307894) can0 158#000006AE0000000C
(1740508852.307996) can0 188#000000010033
(1740508852.308351) can0 136#0202000000000037
(1740508852.308473) can0 13A#2C003100000000BD
(1740508852.308733) can0 13F#0000000001180038
(1740508852.309100) can0 17C#0000065630002077
(1740508852.309120) can0 18E#00002F
(1740508852.314898) can0 164#00000017AB00003D
(1740508852.314926) can0 309#000000000000002A
(1740508852.317843) can0 158#0000069E0000001C
(1740508852.317948) can0 188#000000010006
(1740508852.318311) can0 136#020200000000000A
(1740508852.318475) can0 13A#2C00310000000080
(1740508852.318678) can0 13F#0000000000000005
(1740508852.319060) can0 17C#000006563000204A
(1740508852.319115) can0 18E#00003E
(1740508852.319237) can0 1DC#0206560B
(1740508852.324437) can0 164#00000017AB000000
(1740508852.325688) can0 1A4#0000000000000018
(1740508852.325708) can0 039#000C
(1740508852.325939) can0 1B0#00000000000057
(1740508852.326181) can0 1D0#000000000000000A
(1740508852.328003) can0 158#0000068F0000002B
(1740508852.328035) can0 188#000000010015
(1740508852.328181) can0 136#0202000000000019
(1740508852.328530) can0 13A#2C0031000000009F
(1740508852.328700) can0 13F#00000000010E0015
(1740508852.328991) can0 17C#0000063B30002056
(1740508852.329090) can0 18E#000100
(1740508852.334692) can0 164#00000017AA000010
(1740508852.334725) can0 294#000C40043ECA000E
(1740508852.338076) can0 158#0000068700000032
(1740508852.338109) can0 188#000000010024
(1740508852.338196) can0 136#0202000000000028
(1740508852.338552) can0 13A#2C003100000000AE
(1740508852.338674) can0 13F#0000000000000023
(1740508852.339035) can0 17C#0000063B30002065
(1740508852.339055) can0 18E#000010
(1740508852.339251) can0 1DC#02063B17
(1740508852.343655) can0 039#001B
(1740508852.344291) can0 164#00000017AB00002E
(1740508852.345866) can0 1A4#0000000000000027
(1740508852.345899) can0 1B0#00000000000066
(1740508852.346084) can0 1D0#000000000000000A
(1740508852.348057) can0 158#0000067800000005
(1740508852.348087) can0 188#000000010033
(1740508852.348091) can0 18E#00022D
(1740508852.348304) can0 136#0202000000000037
(1740508852.348634) can0 13A#2C003100000000BD
(1740508852.348834) can0 13F#0000000001180038
(1740508852.349101) can0 17C#0000061F30002072
(1740508852.354457) can0 164#00000017AB00003D
(1740508852.357763) can0 158#0000066800000015
(1740508852.357926) can0 188#000000010006
(1740508852.358261) can0 136#020200000000000A
(1740508852.358470) can0 13A#2C00310000000080
(1740508852.358692) can0 13F#0000000000000005
(1740508852.358962) can0 17C#0000061F30002045
(1740508852.359112) can0 18E#00013D
(1740508852.359272) can0 1DC#02061F24
(1740508852.359394) can0 320#000021
(1740508852.359643) can0 324#6A350E1200000024
(1740508852.359828) can0 37C#0000000020
(1740508852.360073) can0 40C#014A484D46443124
(1740508852.360216) can0 454#00F624
(1740508852.360462) can0 465#64644242282823
(1740508852.360593) can0 039#002A
(1740508852.364566) can0 164#00000017AB000000
(1740508852.365682) can0 1A4#0000000000000036
(1740508852.365846) can0 1B0#00000000000075
(1740508852.366167) can0 1D0#000000000000000A
(1740508852.366629) can0 305#8035
(1740508852.367779) can0 158#0000065800000025
(1740508852.367916) can0 188#000000010015
(1740508852.368228) can0 136#0202000000000019
(1740508852.368553) can0 13A#2C0031000000009F
(1740508852.368665) can0 13F#000000000118001A
(1740508852.368970) can0 17C#0000060330002051
(1740508852.369064) can0 18E#000001
(1740508852.374993) can0 164#00000017AB00001F
(1740508852.375198) can0 294#000C40043ECA001D
(1740508852.377810) can0 158#0000064F0000003E
(1740508852.377916) can0 188#000000010024
(1740508852.378247) can0 136#0202000000000028
(1740508852.378568) can0 13A#2C003100000000AE
(1740508852.378589) can0 039#0039
(1740508852.378814) can0 13F#0000000000000023
(1740508852.379132) can0 17C#0000060330002060
(1740508852.379184) can0 18E#000010
(1740508852.379450) can0 1DC#02060330
(1740508852.384404) can0 164#00000017AA00002F
(1740508852.385657) can0 1A4#0000000000000009
(1740508852.385842) can0 1B0#00000000000048
(1740508852.386150) can0 1D0#000000000000000A
(1740508852.388203) can0 158#0000063F00000002
(1740508852.388236) can0 188#000000010033
(1740508852.388240) can0 136#0202000000000037
(1740508852.388494) can0 13A#2C003100000000BD
(1740508852.388745) can0 13F#000000000122003D
(1740508852.388918) can0 17C#000005E63000207F
(1740508852.389075) can0 18E#00012E
(1740508852.394543) can0 164#00000017AB00003D
(1740508852.395753) can0 039#000C
(1740508852.398086) can0 158#0000063000000010
(1740508852.398119) can0 188#000000010006
(1740508852.398162) can0 136#020200000000000A
(1740508852.398491) can0 13A#2C00310000000080
(1740508852.398732) can0 13F#0000000000000005
(1740508852.398929) can0 17C#000005E630002042
(1740508852.399068) can0 18E#00003E
(1740508852.399238) can0 1DC#0205E603
(1740508852.404305) can0 164#00000017AB000000
(1740508852.405675) can0 1A4#0000000000000018
(1740508852.405847) can0 1B0#00000000000057
(1740508852.406133) can0 1D0#000000000000000A
(1740508852.407783) can0 158#0000062800000028
(1740508852.407919) can0 188#000000010015
(1740508852.408237) can0 136#0202000000000019
(1740508852.408421) can0 13A#2C0031000000009F
(1740508852.408698) can0 13F#000000000136001A
(1740508852.408980) can0 17C#000005C730002052
(1740508852.409039) can0 18E#000001
(1740508852.413516) can0 039#001B
(1740508852.414382) can0 164#00000017AB00001F
(1740508852.414623) can0 294#000C40043ECA002C
(1740508852.414909) can0 309#0000000000000039
(1740508852.415170) can0 428#000000043ECA3C
(1740508852.415349) can0 42A#0035
(1740508852.415638) can0 405#0000040000000038
(1740508852.417674) can0 158#0000061700000039
(1740508852.417874) can0 188#000000010024
(1740508852.418160) can0 136#0202000000000028
(1740508852.418394) can0 13A#2C003100000000AE
(1740508852.418661) can0 13F#0000000000000023
(1740508852.418897) can0 17C#000005C730002061
(1740508852.419033) can0 18E#00011F
(1740508852.419216) can0 1DC#0205C713
(1740508852.424305) can0 164#00000017AB00002E
(1740508852.425657) can0 1A4#0000000000000027
(1740508852.426027) can0 1B0#00000000000066
(1740508852.426201) can0 1D0#000000000000000A
(1740508852.427727) can0 158#000006050000000F
(1740508852.427903) can0 188#000000010033
(1740508852.428162) can0 136#0202000000000037
(1740508852.428399) can0 13A#2C013100000000BC
(1740508852.428637) can0 13F#000000000122003D
(1740508852.428873) can0 17C#000005AA3000207F
(1740508852.429035) can0 18E#00002F
(1740508852.430572) can0 039#002A
(1740508852.434542) can0 164#00000017AB00003D
(1740508852.437767) can0 158#000005FD00000018
(1740508852.437917) can0 188#000000010006
(1740508852.438221) can0 136#020200000000000A
(1740508852.438430) can0 13A#2C0131000000008F
(1740508852.438717) can0 13F#0000000000000005
(1740508852.438950) can0 17C#000005AA30002042
(1740508852.439064) can0 18E#00003E
(1740508852.439219) can0 1DC#0205AA21
(1740508852.444328) can0 164#00000017AB000000
(1740508852.445650) can0 1A4#0000000000000036
(1740508852.445851) can0 1B0#00000000000075
(1740508852.446086) can0 1D0#000000000000000A
(1740508852.447769) can0 158#000005EF00000026
(1740508852.448113) can0 188#000000010015
(1740508852.448172) can0 136#0202000000000019
(1740508852.448455) can0 13A#2C0231000000009D
(1740508852.448640) can0 13F#000000000136001A
(1740508852.448829) can0 039#0039
(1740508852.449070) can0 17C#0000058B30002052
(1740508852.449179) can0 18E#000100
(1740508852.454864) can0 164#00000017AB00001F
(1740508852.454892) can0 294#000C40043ECA003B
(1740508852.457796) can0 158#000005DF00000036
(1740508852.457903) can0 188#000000010024
(1740508852.458230) can0 136#0202000000000028
(1740508852.458418) can0 13A#2C023100000000AC
(1740508852.458737) can0 13F#0000000000000023
(1740508852.458925) can0 17C#0000058B30002061
(1740508852.459046) can0 18E#000010
(1740508852.459298) can0 1DC#02058B31
(1740508852.459380) can0 320#000030
(1740508852.459658) can0 324#6A350E1200000033
(1740508852.459829) can0 37C#000000003F
(1740508852.464566) can0 164#00000017AA00002F
(1740508852.465671) can0 1A4#0000000000000009
(1740508852.465718) can0 039#000C
(1740508852.466036) can0 1B0#00000000000048
(1740508852.466232) can0 1D0#000000000000000A
(1740508852.468009) can0 158#000005D500000003
(1740508852.468038) can0 188#000000010033
(1740508852.468172) can0 136#0202000000000037
(1740508852.468459) can0 13A#2C033100000000BA
(1740508852.468656) can0 13F#000000000140003D
(1740508852.468965) can0 17C#0000056B30002072
(1740508852.469050) can0 18E#00002F
(1740508852.471845) can0 305#8008
(1740508852.475229) can0 164#00000017AB00003D
(1740508852.478018) can0 158#000005C300000015
(1740508852.478052) can0 188#000000010006
(1740508852.478184) can0 136#020200000000000A
(1740508852.478480) can0 13A#2C0331000000008D
(1740508852.478668) can0 13F#0000000000000005
(1740508852.479015) can0 17C#0000056B30002045
(1740508852.479036) can0 18E#00013D
(1740508852.479243) can0 1DC#02056B06
(1740508852.483867) can0 039#001B
(1740508852.484400) can0 164#00000017AB000000
(1740508852.485690) can0 1A4#0000000000000018
(1740508852.485849) can0 1B0#00000000000057
(1740508852.486161) can0 1D0#000000000000000A
(1740508852.487781) can0 158#000005BB0000002D
(1740508852.487926) can0 188#000000010015
(1740508852.488232) can0 136#0202000000000019
(1740508852.488429) can0 13A#2C0331000000009C
(1740508852.488761) can0 13F#000000000136001A
(1740508852.488887) can0 17C#0000054C30002055
(1740508852.489080) can0 18E#000001
(1740508852.494551) can0 164#00000017AB00001F
(1740508852.494640) can0 294#000C40043ECA000E
(1740508852.498223) can0 158#000005AC0000003C
(1740508852.498258) can0 188#000000010024
(1740508852.498262) can0 136#0202000000000028
(1740508852.498410) can0 13A#2C033100000000AB
(1740508852.498720) can0 13F#0000000000000023
(1740508852.498907) can0 17C#0000054C30002064
(1740508852.499058) can0 18E#000010
(1740508852.499218) can0 1DC#02054C16
(1740508852.501041) can0 039#002A
(1740508852.504467) can0 164#00000017AB00002E
(1740508852.505692) can0 1A4#0000000000000027
(1740508852.505847) can0 1B0#00000000000066
(1740508852.506171) can0 1D0#000000000000000A
(1740508852.508029) can0 158#000005A400000007
(1740508852.508062) can0 188#000000010033
(1740508852.508164) can0 136#0202000000000037
(1740508852.508409) can0 13A#2C043100000000B9
(1740508852.508756) can0 13F#0000000001540038
(1740508852.508902) can0 17C#0000052A30002077
(1740508852.509031) can0 18E#00012E
(1740508852.514750) can0 164#00000017AB00003D
(1740508852.514784) can0 309#000000000000000C
(1740508852.517662) can0 039#0039
(1740508852.517821) can0 158#000005910000001A
(1740508852.518010) can0 188#000000010006
(1740508852.518326) can0 136#020200000000000A
(1740508852.518518) can0 13A#2C0431000000008C
(1740508852.518824) can0 13F#0000000000000005
(1740508852.518988) can0 17C#0000052A3000204A
(1740508852.519138) can0 18E#00003E
(1740508852.519302) can0 1DC#02052A29
(1740508852.524661) can0 164#00000017AB000000
(1740508852.525732) can0 1A4#0000000000000036
(1740508852.525850) can0 1B0#00000000000075
(1740508852.526179) can0 1D0#000000000000000A
(1740508852.528197) can0 158#0000058700000024
(1740508852.528232) can0 188#000000010015
(1740508852.528237) can0 136#0202000000000019
(1740508852.528416) can0 13A#2C0531000000009A
(1740508852.528663) can0 13F#0000000000000014
(1740508852.528973) can0 17C#0000052A30002059
(1740508852.529071) can0 18E#00020F
(1740508852.534697) can0 164#00000017AB00001F
(1740508852.534731) can0 294#000C40043ECA001D
(1740508852.535654) can0 039#000C
(1740508852.538014) can0 158#0000057600000035
(1740508852.538048) can0 188#000000010024
(1740508852.538180) can0 136#0202000000000028
(1740508852.538470) can0 13A#2C063100000000A8
(1740508852.538666) can0 13F#00000000014A0024
(1740508852.538969) can0 17C#000005093000206B
(1740508852.539069) can0 18E#00031D
(1740508852.539217) can0 1DC#0205093B
(1740508852.544430) can0 164#00000017AB00002E
(1740508852.545905) can0 1A4#0000000000000009
(1740508852.545927) can0 1B0#00000000000048
(1740508852.546142) can0 1D0#000000000000000A
(1740508852.548187) can0 158#0000056F00000000
(1740508852.548221) can0 188#000000010033
(1740508852.548226) can0 18E#00022D
(1740508852.548309) can0 136#0202000000000037
(1740508852.548537) can0 13A#2C083100000000B5
(1740508852.548805) can0 13F#0000000000000032
(1740508852.549098) can0 17C#000005093000207A
(1740508852.553015) can0 039#001B
(1740508852.554587) can0 164#00000017AB00003D
(1740508852.558036) can0 158#0000055D00000012
(1740508852.558068) can0 188#000000010006
(1740508852.558172) can0 136#020200000000000A
(1740508852.558494) can0 13A#2C0B310000000085
(1740508852.558671) can0 13F#00000000015E0001
(1740508852.558961) can0 17C#000004E630002043
(1740508852.559058) can0 18E#00023C
(1740508852.559217) can0 1DC#0204E604
(1740508852.559457) can0 320#000003
(1740508852.559612) can0 324#6A350E1200000006
(1740508852.559821) can0 37C#0000000002
(1740508852.563239) can0 18DA11F1#0322261000000000
(1740508852.563274) can0 18DAF111#1039622610FFFDFF
(1740508852.564381) can0 164#00000017AB000000
(1740508852.565732) can0 1A4#0000000000000018
(1740508852.565902) can0 1B0#00000000000057
(1740508852.566210) can0 1D0#000000000000000A
(1740508852.568036) can0 158#000005540000002A
(1740508852.568069) can0 188#000000010015
(1740508852.568195) can0 18DA11F1#3000000000000000
(1740508852.568555) can0 136#0202000000000019
(1740508852.568702) can0 13A#2C0E310000000091
(1740508852.568945) can0 13F#0000000000000014
(1740508852.569209) can0 17C#000004E6B000205A
(1740508852.569310) can0 18E#00030E
(1740508852.569592) can0 18DAF111#217DE0001398260B
(1740508852.569702) can0 039#002A
(1740508852.569967) can0 18DAF111#22396AAD35231493
(1740508852.570473) can0 18DAF111#2364002F00948E52
(1740508852.570810) can0 18DAF111#2400003400008000
(1740508852.571146) can0 18DAF111#250F0845012B00D6
(1740508852.571502) can0 18DAF111#2625002100000000
(1740508852.571712) can0 18DAF111#2700000000000000
(1740508852.572080) can0 18DAF111#2800005555555555
(1740508852.574930) can0 164#00000017AB00001F
(1740508852.575143) can0 294#000C40043ECA002C
(1740508852.575624) can0 305#8017
(1740508852.577894) can0 158#000005410000003D
(1740508852.577931) can0 188#000000010024
(1740508852.578168) can0 136#0202000001000027
(1740508852.578502) can0 13A#2C113100000000AC
(1740508852.578679) can0 13F#0000000000000023
(1740508852.578881) can0 17C#000004E6B0002069
(1740508852.579037) can0 18E#00021E
(1740508852.579192) can0 1DC#0204E613
(1740508852.584376) can0 164#00000017AA00002F
(1740508852.585694) can0 1A4#0000000000000027
(1740508852.586087) can0 1B0#00000000000066
(1740508852.586133) can0 1D0#000000000000000A
(1740508852.586786) can0 039#0039
(1740508852.587759) can0 158#000005380000000A
(1740508852.587945) can0 188#000000010033
(1740508852.588137) can0 136#0002000002000037
(1740508852.588421) can0 13A#2C133100000000B9
(1740508852.588648) can0 13F#0000000001720038
(1740508852.588880) can0 17C#000004C1B000207F
(1740508852.589036) can0 18E#00022D
(1740508852.594506) can0 164#00000017AB00003D
(1740508852.597792) can0 158#0000052F00000013
(1740508852.597889) can0 188#000000010006
(1740508852.598210) can0 136#000200000200000A
(1740508852.598383) can0 13A#2C16310000000089
(1740508852.598644) can0 13F#0000000000000005
(1740508852.598983) can0 17C#000004C1B0002042
(1740508852.599020) can0 18E#00033B
(1740508852.599205) can0 1DC#0204C129
(1740508852.603631) can0 039#000C
(1740508852.604283) can0 164#00000017AB000000
(1740508852.605926) can0 1A4#0000000000000036
(1740508852.605957) can0 1B0#00000000000075
(1740508852.606265) can0 1D0#000000000000000A
(1740508852.607772) can0 158#0000051D00000025
(1740508852.608115) can0 188#000000010015
(1740508852.608169) can0 136#0002000003000018
(1740508852.608394) can0 13A#2C18310000000096
(1740508852.608638) can0 13F#0000000001680015
(1740508852.608891) can0 17C#0000049DB0002058
(1740508852.609017) can0 18E#00020F
(1740508852.614502) can0 164#00000017AA000010
(1740508852.614744) can0 294#000C40043ECA003B
(1740508852.614961) can0 309#000000000000001B
(1740508852.617779) can0 158#000005140000003D
(1740508852.618027) can0 188#000000010024
(1740508852.618146) can0 136#0002000003000027
(1740508852.618380) can0 13A#2C1A3100000000A3
(1740508852.618654) can0 13F#0000000000000023
(1740508852.618877) can0 17C#0000049DB0002067
(1740508852.619034) can0 18E#00021E
(1740508852.619170) can0 1DC#02049D3F
(1740508852.620787) can0 039#001B
(1740508852.624247) can0 164#00000017AA00002F
(1740508852.625665) can0 1A4#0000000000000009
(1740508852.625845) can0 1B0#00000000000048
(1740508852.626121) can0 1D0#000000000000000A
(1740508852.627747) can0 158#0000050000000005
(1740508852.627867) can0 188#000000010033
(1740508852.628172) can0 136#0002000004000035
(1740508852.628389) can0 13A#2C1C3100000000B0
(1740508852.628647) can0 13F#0000000000000032
(1740508852.628860) can0 17C#0000049DB0002076
(1740508852.629107) can0 18E#00032C
(1740508852.634461) can0 164#00000017AB00003D
(1740508852.637711) can0 158#000004F600000010
(1740508852.637880) can0 188#000000010006
(1740508852.638144) can0 136#0002000004000008
(1740508852.638364) can0 13A#2C1D310000000082
(1740508852.638623) can0 13F#000000000172000B
(1740508852.638728) can0 039#002A
(1740508852.639033) can0 17C#00000478B0002040
(1740508852.639129) can0 18E#00023C
(1740508852.639312) can0 1DC#02047809
(1740508852.644331) can0 164#00000017AA000001
(1740508852.645683) can0 1A4#0000000000000018
(1740508852.645881) can0 1B0#00000000000057
(1740508852.646144) can0 1D0#000000000000000A
(1740508852.647758) can0 158#000004ED00000029
(1740508852.647877) can0 188#000000010015
(1740508852.648140) can0 136#0002000004000017
(1740508852.648420) can0 13A#2C1F31000000009F
(1740508852.648628) can0 13F#0000000000000014
(1740508852.648940) can0 17C#00000478B000205F
(1740508852.649024) can0 18E#00020F
(1740508852.654384) can0 164#00000017AA000010
(1740508852.654661) can0 294#000C40043ECA000E
(1740508852.655576) can0 039#0039
(1740508852.657712) can0 158#000004DB0000003B
(1740508852.657942) can0 188#000000010024
(1740508852.658160) can0 136#0002000005000025
(1740508852.658444) can0 13A#2C203100000000AC
(1740508852.658616) can0 13F#00000000014A0024
(1740508852.658885) can0 17C#00000457B0002061
(1740508852.659018) can0 18E#00031D
(1740508852.659177) can0 1DC#0204571B
(1740508852.659325) can0 320#000012
(1740508852.659572) can0 324#6A350E1200000015
(1740508852.659785) can0 37C#0000000011
(1740508852.659997) can0 40C#023632303653323C
(1740508852.660186) can0 454#00F633
(1740508852.660359) can0 465#64644242282832
(1740508852.664359) can0 164#00000017AB00002E
(1740508852.665706) can0 1A4#0000000000000027
(1740508852.665930) can0 1B0#00000000000066
(1740508852.666169) can0 1D0#000000000000000A
(1740508852.667709) can0 158#000004D100000008
(1740508852.667939) can0 188#000000010033
(1740508852.668135) can0 136#0002000005000034
(1740508852.668353) can0 13A#2C213100000000BA
(1740508852.668610) can0 13F#0000000000000032
(1740508852.668863) can0 17C#00000457B0002070
(1740508852.669064) can0 18E#00022D
(1740508852.672595) can0 039#000C
(1740508852.674895) can0 164#00000017AB00003D
(1740508852.677708) can0 158#000004C700000012
(1740508852.677928) can0 188#000000010006
(1740508852.678133) can0 136#0002000006000006
(1740508852.678365) can0 13A#2C2331000000008B
(1740508852.678613) can0 13F#0000000000000005
(1740508852.678865) can0 17C#00000457B0002043
(1740508852.679063) can0 18E#00023C
(1740508852.679155) can0 1DC#0204572A
(1740508852.679279) can0 305#8026
(1740508852.684401) can0 164#00000017AB000000
(1740508852.685653) can0 1A4#0000000000000036
(1740508852.685909) can0 1B0#00000000000075
(1740508852.686137) can0 1D0#000000000000000A
(1740508852.687681) can0 158#000004BD0000002C
(1740508852.687898) can0 188#000000010015
(1740508852.688235) can0 136#0002000006000015
(1740508852.688531) can0 13A#2C24310000000099
(1740508852.688645) can0 13F#00000000014A0015
(1740508852.688870) can0 17C#00000436B0002055
(1740508852.689080) can0 18E#00030E
(1740508852.690707) can0 039#001B
(1740508852.694505) can0 164#00000017AA000010
(1740508852.694648) can0 294#000C40043ECA001D
(1740508852.697784) can0 158#000004A900000030
(1740508852.697962) can0 188#000000010024
(1740508852.698187) can0 136#0002000007000023
(1740508852.698397) can0 13A#2C263100000000A6
(1740508852.698665) can0 13F#0000000000000023
(1740508852.698948) can0 17C#00000436B0002064
(1740508852.699039) can0 18E#00021E
(1740508852.699192) can0 1DC#0204363C
(1740508852.704646) can0 164#00000017AA00002F
(1740508852.705237) can0 18DA11F1#0322261000000000
(1740508852.705688) can0 1A4#0000000000000009
(1740508852.706007) can0 18DAF111#1039622610FFFDFF
(1740508852.706156) can0 1B0#00000000000048
(1740508852.706465) can0 1D0#000000000000000A
(1740508852.708137) can0 158#0000049F0000000E
(1740508852.708164) can0 188#000000010033
(1740508852.708167) can0 136#0002000008000031
(1740508852.708461) can0 13A#2C283100000000B3
(1740508852.708660) can0 13F#0000000000000032
(1740508852.708798) can0 039#002A
(1740508852.709047) can0 17C#00000436B0002073
(1740508852.709194) can0 18E#00022D
